;$FILEVERSION=1.1
;$STARTTIME=44629.7378008565
;
;   Start time: 09/03/2022 17:42:25.994.0
;   Generated by PCAN-View v4.3.4.615
;
;   Message Number
;   |         Time Offset (ms)
;   |         |        Type
;   |         |        |        ID (hex)
;   |         |        |        |     Data Length
;   |         |        |        |     |   Data Bytes (hex) ...
;   |         |        |        |     |   |
;---+--   ----+----  --+--  ----+---  +  -+ -- -- -- -- -- -- --
     1)         0.0  Rx         0102  8  15 00 00 00 00 33 F7 00 
     2)         0.3  Rx         0103  8  14 00 00 00 00 33 F7 00 
     3)         1.0  Rx         0102  8  15 00 00 00 00 33 F8 00 
     4)         1.2  Rx         0103  8  14 00 00 00 00 33 F8 00 
     5)         2.0  Rx         0102  8  15 00 00 00 00 33 F9 00 
     6)         2.3  Rx         0103  8  14 00 00 00 00 33 F9 00 
     7)         3.0  Rx         0102  8  15 00 00 00 00 33 FA 00 
     8)         3.2  Rx         0103  8  14 00 00 00 00 33 FA 00 
     9)         4.0  Rx         0102  8  15 00 00 00 00 33 FB 00 
    10)         4.2  Rx         0103  8  14 00 00 00 00 33 FB 00 
    11)         5.0  Rx         0102  8  15 00 00 00 00 33 FC 00 
    12)         5.2  Rx         0103  8  14 00 00 00 00 33 FC 00 
    13)         6.0  Rx         0102  8  15 00 00 00 00 33 FD 00 
    14)         6.2  Rx         0103  8  14 00 00 00 00 33 FD 00 
    15)         7.0  Rx         0102  8  15 00 00 00 00 33 FE 00 
    16)         7.3  Rx         0103  8  14 00 00 00 00 33 FE 00 
    17)         8.0  Rx         0102  8  15 00 00 00 00 33 FF 00 
    18)         8.2  Rx         0103  8  14 00 00 00 00 33 FF 00 
    19)         9.0  Rx         0102  8  15 00 00 00 00 34 00 00 
    20)         9.3  Rx         0103  8  14 00 00 00 01 34 00 00 
    21)        10.0  Rx         0102  8  15 00 00 00 00 34 01 00 
    22)        10.2  Rx         0103  8  14 00 00 00 01 34 01 00 
    23)        11.0  Rx         0102  8  15 00 00 00 00 34 02 00 
    24)        11.3  Rx         0103  8  14 00 00 00 00 34 02 00 
    25)        12.0  Rx         0102  8  15 00 00 00 00 34 03 00 
    26)        12.2  Rx         0103  8  14 00 00 00 00 34 03 00 
    27)        13.0  Rx         0102  8  15 00 00 00 00 34 04 00 
    28)        13.2  Rx         0103  8  14 00 00 00 01 34 04 00 
    29)        14.0  Rx         0102  8  15 00 00 00 00 34 05 00 
    30)        14.2  Rx         0103  8  14 00 00 00 01 34 05 00 
    31)        15.0  Rx         0102  8  15 00 00 00 00 34 06 00 
    32)        15.2  Rx         0103  8  14 00 00 00 01 34 06 00 
    33)        16.0  Rx         0102  8  15 00 00 00 00 34 07 00 
    34)        16.3  Rx         0103  8  14 00 00 00 01 34 07 00 
    35)        17.0  Rx         0102  8  15 00 00 00 00 34 08 00 
    36)        17.2  Rx         0103  8  14 00 00 00 01 34 08 00 
    37)        18.0  Rx         0102  8  15 00 00 00 00 34 09 00 
    38)        18.3  Rx         0103  8  14 00 00 00 01 34 09 00 
    39)        19.0  Rx         0102  8  15 00 00 00 00 34 0A 00 
    40)        19.2  Rx         0103  8  14 00 00 00 01 34 0A 00 
    41)        20.0  Rx         0102  8  15 00 00 00 00 34 0B 00 
    42)        20.2  Rx         0103  8  14 00 00 00 01 34 0B 00 
    43)        21.0  Rx         0102  8  15 00 00 00 00 34 0C 00 
    44)        21.2  Rx         0103  8  14 00 00 00 01 34 0C 00 
    45)        22.0  Rx         0102  8  15 00 00 00 01 34 0D 00 
    46)        22.2  Rx         0103  8  14 00 00 00 00 34 0D 00 
    47)        23.0  Rx         0102  8  15 00 00 00 01 34 0E 00 
    48)        23.3  Rx         0103  8  14 00 00 00 00 34 0E 00 
    49)        24.0  Rx         0102  8  15 00 00 00 01 34 0F 00 
    50)        24.2  Rx         0103  8  14 00 00 00 00 34 0F 00 
    51)        25.0  Rx         0102  8  15 00 00 00 01 34 10 00 
    52)        25.3  Rx         0103  8  14 00 00 00 00 34 10 00 
    53)        26.0  Rx         0102  8  15 00 00 00 01 34 11 00 
    54)        26.2  Rx         0103  8  14 00 00 00 00 34 11 00 
    55)        27.0  Rx         0102  8  15 00 00 00 01 34 12 00 
    56)        27.3  Rx         0103  8  14 00 00 00 00 34 12 00 
    57)        28.0  Rx         0102  8  15 00 00 00 01 34 13 00 
    58)        28.2  Rx         0103  8  14 00 00 00 00 34 13 00 
    59)        29.0  Rx         0102  8  15 00 00 00 01 34 14 00 
    60)        29.2  Rx         0103  8  14 00 00 00 00 34 14 00 
    61)        30.0  Rx         0102  8  15 00 00 00 01 34 15 00 
    62)        30.2  Rx         0103  8  14 00 00 00 00 34 15 00 
    63)        31.0  Rx         0102  8  15 00 00 00 01 34 16 00 
    64)        31.2  Rx         0103  8  14 00 00 00 00 34 16 00 
    65)        32.0  Rx         0102  8  15 00 00 00 01 34 17 00 
    66)        32.3  Rx         0103  8  14 00 00 00 00 34 17 00 
    67)        33.0  Rx         0102  8  15 00 00 00 01 34 18 00 
    68)        33.2  Rx         0103  8  14 00 00 00 00 34 18 00 
    69)        34.0  Rx         0102  8  15 00 00 00 00 34 19 00 
    70)        34.3  Rx         0103  8  14 00 00 00 00 34 19 00 
    71)        35.0  Rx         0102  8  15 00 00 00 00 34 1A 00 
    72)        35.2  Rx         0103  8  14 00 00 00 00 34 1A 00 
    73)        36.0  Rx         0102  8  15 00 00 00 00 34 1B 00 
    74)        36.3  Rx         0103  8  14 00 00 00 00 34 1B 00 
    75)        37.0  Rx         0102  8  15 00 00 00 00 34 1C 00 
    76)        37.2  Rx         0103  8  14 00 00 00 01 34 1C 00 
    77)        38.0  Rx         0102  8  15 00 00 00 00 34 1D 00 
    78)        38.2  Rx         0103  8  14 00 00 00 01 34 1D 00 
    79)        39.0  Rx         0102  8  15 00 00 00 00 34 1E 00 
    80)        39.2  Rx         0103  8  14 00 00 00 01 34 1E 00 
    81)        40.0  Rx         0102  8  15 00 00 00 00 34 1F 00 
    82)        40.2  Rx         0103  8  14 00 00 00 00 34 1F 00 
    83)        41.0  Rx         0102  8  15 00 00 00 00 34 20 00 
    84)        41.3  Rx         0103  8  14 00 00 00 00 34 20 00 
    85)        42.0  Rx         0102  8  15 00 00 00 00 34 21 00 
    86)        42.2  Rx         0103  8  14 00 00 00 00 34 21 00 
    87)        43.0  Rx         0102  8  15 00 00 00 00 34 22 00 
    88)        43.2  Rx         0103  8  14 00 00 00 00 34 22 00 
    89)        44.0  Rx         0102  8  15 00 00 00 00 34 23 00 
    90)        44.2  Rx         0103  8  14 00 00 00 00 34 23 00 
    91)        45.0  Rx         0102  8  15 00 00 00 00 34 24 00 
    92)        45.2  Rx         0103  8  14 00 00 00 00 34 24 00 
    93)        46.0  Rx         0102  8  15 00 00 00 00 34 25 00 
    94)        46.2  Rx         0103  8  14 00 00 00 00 34 25 00 
    95)        47.0  Rx         0102  8  15 00 00 00 01 34 26 00 
    96)        47.2  Rx         0103  8  14 00 00 00 00 34 26 00 
    97)        48.0  Rx         0102  8  15 00 00 00 01 34 27 00 
    98)        48.3  Rx         0103  8  14 00 00 00 00 34 27 00 
    99)        49.0  Rx         0102  8  15 00 00 00 01 34 28 00 
   100)        49.2  Rx         0103  8  14 00 00 00 00 34 28 00 
   101)        50.0  Rx         0102  8  15 00 00 00 02 34 29 00 
   102)        50.2  Rx         0103  8  14 00 00 00 00 34 29 00 
   103)        51.0  Rx         0102  8  15 00 00 00 02 34 2A 00 
   104)        51.2  Rx         0103  8  14 00 00 00 00 34 2A 00 
   105)        52.0  Rx         0102  8  15 00 00 00 01 34 2B 00 
   106)        52.2  Rx         0103  8  14 00 00 00 00 34 2B 00 
   107)        53.0  Rx         0102  8  15 00 00 00 01 34 2C 00 
   108)        53.2  Rx         0103  8  14 00 00 00 00 34 2C 00 
   109)        54.0  Rx         0102  8  15 00 00 00 01 34 2D 00 
   110)        54.2  Rx         0103  8  14 00 00 00 00 34 2D 00 
   111)        55.0  Rx         0102  8  15 00 00 00 01 34 2E 00 
   112)        55.2  Rx         0103  8  14 00 00 00 00 34 2E 00 
   113)        56.0  Rx         0102  8  15 00 00 00 00 34 2F 00 
   114)        56.2  Rx         0103  8  14 00 00 00 00 34 2F 00 
   115)        57.0  Rx         0102  8  15 00 00 00 00 34 30 00 
   116)        57.3  Rx         0103  8  14 00 00 00 00 34 30 00 
   117)        58.0  Rx         0102  8  15 00 00 00 00 34 31 00 
   118)        58.2  Rx         0103  8  14 00 00 00 00 34 31 00 
   119)        59.0  Rx         0102  8  15 00 00 00 00 34 32 00 
   120)        59.2  Rx         0103  8  14 00 00 00 00 34 32 00 
   121)        60.0  Rx         0102  8  15 00 00 00 00 34 33 00 
   122)        60.2  Rx         0103  8  14 00 00 00 00 34 33 00 
   123)        61.0  Rx         0102  8  15 00 00 00 00 34 34 00 
   124)        61.2  Rx         0103  8  14 00 00 00 00 34 34 00 
   125)        62.0  Rx         0102  8  15 00 00 00 00 34 35 00 
   126)        62.2  Rx         0103  8  14 00 00 00 00 34 35 00 
   127)        63.0  Rx         0102  8  15 00 00 00 00 34 36 00 
   128)        63.2  Rx         0103  8  14 00 00 00 00 34 36 00 
   129)        64.0  Rx         0102  8  15 00 00 00 00 34 37 00 
   130)        64.3  Rx         0103  8  14 00 00 00 00 34 37 00 
   131)        65.0  Rx         0102  8  15 00 00 00 00 34 38 00 
   132)        65.2  Rx         0103  8  14 00 00 00 00 34 38 00 
   133)        66.0  Rx         0102  8  15 00 00 00 00 34 39 00 
   134)        66.2  Rx         0103  8  14 00 00 00 00 34 39 00 
   135)        67.0  Rx         0102  8  15 00 00 00 00 34 3A 00 
   136)        67.2  Rx         0103  8  14 00 00 00 00 34 3A 00 
   137)        68.0  Rx         0102  8  15 00 00 00 00 34 3B 00 
   138)        68.2  Rx         0103  8  14 00 00 00 00 34 3B 00 
   139)        69.0  Rx         0102  8  15 00 00 00 00 34 3C 00 
   140)        69.2  Rx         0103  8  14 00 00 00 00 34 3C 00 
   141)        70.0  Rx         0102  8  15 00 00 00 00 34 3D 00 
   142)        70.2  Rx         0103  8  14 00 00 00 00 34 3D 00 
   143)        71.0  Rx         0102  8  15 00 00 00 00 34 3E 00 
   144)        71.2  Rx         0103  8  14 00 00 00 01 34 3E 00 
   145)        72.0  Rx         0102  8  15 00 00 00 00 34 3F 00 
   146)        72.2  Rx         0103  8  14 00 00 00 00 34 3F 00 
   147)        73.0  Rx         0102  8  15 00 00 00 00 34 40 00 
   148)        73.3  Rx         0103  8  14 00 00 00 01 34 40 00 
   149)        74.0  Rx         0102  8  15 00 00 00 00 34 41 00 
   150)        74.2  Rx         0103  8  14 00 00 00 00 34 41 00 
   151)        75.0  Rx         0102  8  15 00 00 00 00 34 42 00 
   152)        75.2  Rx         0103  8  14 00 00 00 00 34 42 00 
   153)        76.0  Rx         0102  8  15 00 00 00 00 34 43 00 
   154)        76.2  Rx         0103  8  14 00 00 00 00 34 43 00 
   155)        77.0  Rx         0102  8  15 00 00 00 00 34 44 00 
   156)        77.3  Rx         0103  8  14 00 00 00 00 34 44 00 
   157)        78.0  Rx         0102  8  15 00 00 00 00 34 45 00 
   158)        78.2  Rx         0103  8  14 00 00 00 00 34 45 00 
   159)        79.0  Rx         0102  8  15 00 00 00 00 34 46 00 
   160)        79.2  Rx         0103  8  14 00 00 00 00 34 46 00 
   161)        80.0  Rx         0102  8  15 00 00 00 00 34 47 00 
   162)        80.3  Rx         0103  8  14 00 00 00 00 34 47 00 
   163)        81.0  Rx         0102  8  15 00 00 00 00 34 48 00 
   164)        81.2  Rx         0103  8  14 00 00 00 00 34 48 00 
   165)        82.0  Rx         0102  8  15 00 00 00 00 34 49 00 
   166)        82.3  Rx         0103  8  14 00 00 00 00 34 49 00 
   167)        83.0  Rx         0102  8  15 00 00 00 00 34 4A 00 
   168)        83.2  Rx         0103  8  14 00 00 00 00 34 4A 00 
   169)        84.0  Rx         0102  8  15 00 00 00 01 34 4B 00 
   170)        84.2  Rx         0103  8  14 00 00 00 00 34 4B 00 
   171)        85.0  Rx         0102  8  15 00 00 00 01 34 4C 00 
   172)        85.2  Rx         0103  8  14 00 00 00 00 34 4C 00 
   173)        86.0  Rx         0102  8  15 00 00 00 00 34 4D 00 
   174)        86.2  Rx         0103  8  14 00 00 00 00 34 4D 00 
   175)        87.0  Rx         0102  8  15 00 00 00 00 34 4E 00 
   176)        87.2  Rx         0103  8  14 00 00 00 00 34 4E 00 
   177)        88.0  Rx         0102  8  15 00 00 00 00 34 4F 00 
   178)        88.2  Rx         0103  8  14 00 00 00 00 34 4F 00 
   179)        89.0  Rx         0102  8  15 00 00 00 00 34 50 00 
   180)        89.3  Rx         0103  8  14 00 00 00 01 34 50 00 
   181)        90.0  Rx         0102  8  15 00 00 00 00 34 51 00 
   182)        90.2  Rx         0103  8  14 00 00 00 01 34 51 00 
   183)        91.0  Rx         0102  8  15 00 00 00 00 34 52 00 
   184)        91.2  Rx         0103  8  14 00 00 00 01 34 52 00 
   185)        92.0  Rx         0102  8  15 00 00 00 00 34 53 00 
   186)        92.2  Rx         0103  8  14 00 00 00 00 34 53 00 
   187)        93.0  Rx         0102  8  15 00 00 00 00 34 54 00 
   188)        93.2  Rx         0103  8  14 00 00 00 00 34 54 00 
   189)        94.0  Rx         0102  8  15 00 00 00 00 34 55 00 
   190)        94.2  Rx         0103  8  14 00 00 00 01 34 55 00 
   191)        95.0  Rx         0102  8  15 00 00 00 00 34 56 00 
   192)        95.2  Rx         0103  8  14 00 00 00 00 34 56 00 
   193)        96.0  Rx         0102  8  15 00 00 00 00 34 57 00 
   194)        96.3  Rx         0103  8  14 00 00 00 00 34 57 00 
   195)        97.0  Rx         0102  8  15 00 00 00 00 34 58 00 
   196)        97.2  Rx         0103  8  14 00 00 00 00 34 58 00 
   197)        98.0  Rx         0102  8  15 00 00 00 00 34 59 00 
   198)        98.3  Rx         0103  8  14 00 00 00 00 34 59 00 
   199)        99.0  Rx         0102  8  15 00 00 00 00 34 5A 00 
   200)        99.2  Rx         0103  8  14 00 00 00 01 34 5A 00 
   201)       100.0  Rx         0102  8  15 00 00 00 00 34 5B 00 
   202)       100.2  Rx         0103  8  14 00 00 00 00 34 5B 00 
   203)       101.0  Rx         0102  8  15 00 00 00 00 34 5C 00 
   204)       101.2  Rx         0103  8  14 00 00 00 00 34 5C 00 
   205)       102.0  Rx         0102  8  15 00 00 00 00 34 5D 00 
   206)       102.2  Rx         0103  8  14 00 00 00 00 34 5D 00 
   207)       103.0  Rx         0102  8  15 00 00 00 00 34 5E 00 
   208)       103.2  Rx         0103  8  14 00 00 00 00 34 5E 00 
   209)       104.0  Rx         0102  8  15 00 00 00 00 34 5F 00 
   210)       104.2  Rx         0103  8  14 00 00 00 00 34 5F 00 
   211)       105.0  Rx         0102  8  15 00 00 00 01 34 60 00 
   212)       105.3  Rx         0103  8  14 00 00 00 00 34 60 00 
   213)       106.0  Rx         0102  8  15 00 00 00 01 34 61 00 
   214)       106.2  Rx         0103  8  14 00 00 00 00 34 61 00 
   215)       107.0  Rx         0102  8  15 00 00 00 00 34 62 00 
   216)       107.2  Rx         0103  8  14 00 00 00 00 34 62 00 
   217)       108.0  Rx         0102  8  15 00 00 00 00 34 63 00 
   218)       108.2  Rx         0103  8  14 00 00 00 00 34 63 00 
   219)       109.0  Rx         0102  8  15 00 00 00 00 34 64 00 
   220)       109.2  Rx         0103  8  14 00 00 00 00 34 64 00 
   221)       110.0  Rx         0102  8  15 00 00 00 00 34 65 00 
   222)       110.2  Rx         0103  8  14 00 00 00 00 34 65 00 
   223)       111.0  Rx         0102  8  15 00 00 00 00 34 66 00 
   224)       111.2  Rx         0103  8  14 00 00 00 00 34 66 00 
   225)       112.0  Rx         0102  8  15 00 00 00 00 34 67 00 
   226)       112.2  Rx         0103  8  14 00 00 00 00 34 67 00 
   227)       113.0  Rx         0102  8  15 00 00 00 00 34 68 00 
   228)       113.2  Rx         0103  8  14 00 00 00 00 34 68 00 
   229)       114.0  Rx         0102  8  15 00 00 00 00 34 69 00 
   230)       114.2  Rx         0103  8  14 00 00 00 00 34 69 00 
   231)       115.0  Rx         0102  8  15 00 00 00 00 34 6A 00 
   232)       115.2  Rx         0103  8  14 00 00 00 00 34 6A 00 
   233)       116.0  Rx         0102  8  15 00 00 00 00 34 6B 00 
   234)       116.2  Rx         0103  8  14 00 00 00 00 34 6B 00 
   235)       117.0  Rx         0102  8  15 00 00 00 00 34 6C 00 
   236)       117.2  Rx         0103  8  14 00 00 00 00 34 6C 00 
   237)       118.0  Rx         0102  8  15 00 00 00 00 34 6D 00 
   238)       118.2  Rx         0103  8  14 00 00 00 00 34 6D 00 
   239)       119.0  Rx         0102  8  15 00 00 00 00 34 6E 00 
   240)       119.2  Rx         0103  8  14 00 00 00 00 34 6E 00 
   241)       120.0  Rx         0102  8  15 00 00 00 00 34 6F 00 
   242)       120.2  Rx         0103  8  14 00 00 00 01 34 6F 00 
   243)       121.0  Rx         0102  8  15 00 00 00 00 34 70 00 
   244)       121.3  Rx         0103  8  14 00 00 00 00 34 70 00 
   245)       122.0  Rx         0102  8  15 00 00 00 00 34 71 00 
   246)       122.2  Rx         0103  8  14 00 00 00 00 34 71 00 
   247)       123.0  Rx         0102  8  15 00 00 00 00 34 72 00 
   248)       123.2  Rx         0103  8  14 00 00 00 00 34 72 00 
   249)       124.0  Rx         0102  8  15 00 00 00 00 34 73 00 
   250)       124.2  Rx         0103  8  14 00 00 00 00 34 73 00 
   251)       125.0  Rx         0102  8  15 00 00 00 00 34 74 00 
   252)       125.2  Rx         0103  8  14 00 00 00 00 34 74 00 
   253)       126.0  Rx         0102  8  15 00 00 00 00 34 75 00 
   254)       126.2  Rx         0103  8  14 00 00 00 00 34 75 00 
   255)       127.0  Rx         0102  8  15 00 00 00 00 34 76 00 
   256)       127.2  Rx         0103  8  14 00 00 00 00 34 76 00 
   257)       128.0  Rx         0102  8  15 00 00 00 00 34 77 00 
   258)       128.2  Rx         0103  8  14 00 00 00 00 34 77 00 
   259)       129.0  Rx         0102  8  15 00 00 00 00 34 78 00 
   260)       129.2  Rx         0103  8  14 00 00 00 00 34 78 00 
   261)       130.0  Rx         0102  8  15 00 00 00 00 34 79 00 
   262)       130.3  Rx         0103  8  14 00 00 00 00 34 79 00 
   263)       131.0  Rx         0102  8  15 00 00 00 00 34 7A 00 
   264)       131.2  Rx         0103  8  14 00 00 00 00 34 7A 00 
   265)       132.0  Rx         0102  8  15 00 00 00 00 34 7B 00 
   266)       132.2  Rx         0103  8  14 00 00 00 00 34 7B 00 
   267)       133.0  Rx         0102  8  15 00 00 00 00 34 7C 00 
   268)       133.2  Rx         0103  8  14 00 00 00 00 34 7C 00 
   269)       134.0  Rx         0102  8  15 00 00 00 00 34 7D 00 
   270)       134.2  Rx         0103  8  14 00 00 00 00 34 7D 00 
   271)       135.0  Rx         0102  8  15 00 00 00 00 34 7E 00 
   272)       135.2  Rx         0103  8  14 00 00 00 00 34 7E 00 
   273)       136.0  Rx         0102  8  15 00 00 00 00 34 7F 00 
   274)       136.2  Rx         0103  8  14 00 00 00 00 34 7F 00 
   275)       137.0  Rx         0102  8  15 00 00 00 00 34 80 00 
   276)       137.3  Rx         0103  8  14 00 00 00 00 34 80 00 
   277)       138.0  Rx         0102  8  15 00 00 00 00 34 81 00 
   278)       138.2  Rx         0103  8  14 00 00 00 00 34 81 00 
   279)       139.0  Rx         0102  8  15 00 00 00 00 34 82 00 
   280)       139.3  Rx         0103  8  14 00 00 00 00 34 82 00 
   281)       140.0  Rx         0102  8  15 00 00 00 00 34 83 00 
   282)       140.2  Rx         0103  8  14 00 00 00 00 34 83 00 
   283)       141.0  Rx         0102  8  15 00 00 00 00 34 84 00 
   284)       141.2  Rx         0103  8  14 00 00 00 00 34 84 00 
   285)       142.0  Rx         0102  8  15 00 00 00 00 34 85 00 
   286)       142.2  Rx         0103  8  14 00 00 00 00 34 85 00 
   287)       143.0  Rx         0102  8  15 00 00 00 00 34 86 00 
   288)       143.2  Rx         0103  8  14 00 00 00 00 34 86 00 
   289)       144.0  Rx         0102  8  15 00 00 00 00 34 87 00 
   290)       144.2  Rx         0103  8  14 00 00 00 00 34 87 00 
   291)       145.0  Rx         0102  8  15 00 00 00 00 34 88 00 
   292)       145.2  Rx         0103  8  14 00 00 00 01 34 88 00 
   293)       146.0  Rx         0102  8  15 00 00 00 00 34 89 00 
   294)       146.3  Rx         0103  8  14 00 00 00 00 34 89 00 
   295)       147.0  Rx         0102  8  15 00 00 00 00 34 8A 00 
   296)       147.2  Rx         0103  8  14 00 00 00 00 34 8A 00 
   297)       148.0  Rx         0102  8  15 00 00 00 00 34 8B 00 
   298)       148.3  Rx         0103  8  14 00 00 00 00 34 8B 00 
   299)       149.0  Rx         0102  8  15 00 00 00 00 34 8C 00 
   300)       149.2  Rx         0103  8  14 00 00 00 00 34 8C 00 
   301)       150.0  Rx         0102  8  15 00 00 00 00 34 8D 00 
   302)       150.2  Rx         0103  8  14 00 00 00 00 34 8D 00 
   303)       151.0  Rx         0102  8  15 00 00 00 00 34 8E 00 
   304)       151.2  Rx         0103  8  14 00 00 00 00 34 8E 00 
   305)       152.0  Rx         0102  8  15 00 00 00 00 34 8F 00 
   306)       152.2  Rx         0103  8  14 00 00 00 00 34 8F 00 
   307)       153.0  Rx         0102  8  15 00 00 00 00 34 90 00 
   308)       153.3  Rx         0103  8  14 00 00 00 00 34 90 00 
   309)       154.0  Rx         0102  8  15 00 00 00 00 34 91 00 
   310)       154.2  Rx         0103  8  14 00 00 00 00 34 91 00 
   311)       155.0  Rx         0102  8  15 00 00 00 00 34 92 00 
   312)       155.2  Rx         0103  8  14 00 00 00 00 34 92 00 
   313)       156.0  Rx         0102  8  15 00 00 00 00 34 93 00 
   314)       156.2  Rx         0103  8  14 00 00 00 00 34 93 00 
   315)       157.0  Rx         0102  8  15 00 00 00 00 34 94 00 
   316)       157.2  Rx         0103  8  14 00 00 00 00 34 94 00 
   317)       158.0  Rx         0102  8  15 00 00 00 00 34 95 00 
   318)       158.2  Rx         0103  8  14 00 00 00 00 34 95 00 
   319)       159.0  Rx         0102  8  15 00 00 00 00 34 96 00 
   320)       159.2  Rx         0103  8  14 00 00 00 00 34 96 00 
   321)       160.0  Rx         0102  8  15 00 00 00 00 34 97 00 
   322)       160.2  Rx         0103  8  14 00 00 00 01 34 97 00 
   323)       161.0  Rx         0102  8  15 00 00 00 00 34 98 00 
   324)       161.2  Rx         0103  8  14 00 00 00 01 34 98 00 
   325)       162.0  Rx         0102  8  15 00 00 00 00 34 99 00 
   326)       162.2  Rx         0103  8  14 00 00 00 01 34 99 00 
   327)       163.0  Rx         0102  8  15 00 00 00 00 34 9A 00 
   328)       163.3  Rx         0103  8  14 00 00 00 01 34 9A 00 
   329)       164.0  Rx         0102  8  15 00 00 00 00 34 9B 00 
   330)       164.2  Rx         0103  8  14 00 00 00 00 34 9B 00 
   331)       165.0  Rx         0102  8  15 00 00 00 00 34 9C 00 
   332)       165.3  Rx         0103  8  14 00 00 00 00 34 9C 00 
   333)       166.0  Rx         0102  8  15 00 00 00 00 34 9D 00 
   334)       166.3  Rx         0103  8  14 00 00 00 00 34 9D 00 
   335)       167.0  Rx         0102  8  15 00 00 00 00 34 9E 00 
   336)       167.3  Rx         0103  8  14 00 00 00 01 34 9E 00 
   337)       168.0  Rx         0102  8  15 00 00 00 00 34 9F 00 
   338)       168.3  Rx         0103  8  14 00 00 00 00 34 9F 00 
   339)       169.0  Rx         0102  8  15 00 00 00 00 34 A0 00 
   340)       169.3  Rx         0103  8  14 00 00 00 00 34 A0 00 
   341)       170.0  Rx         0102  8  15 00 00 00 00 34 A1 00 
   342)       170.3  Rx         0103  8  14 00 00 00 00 34 A1 00 
   343)       171.0  Rx         0102  8  15 00 00 00 00 34 A2 00 
   344)       171.2  Rx         0103  8  14 00 00 00 00 34 A2 00 
   345)       172.0  Rx         0102  8  15 00 00 00 00 34 A3 00 
   346)       172.3  Rx         0103  8  14 00 00 00 00 34 A3 00 
   347)       173.0  Rx         0102  8  15 00 00 00 00 34 A4 00 
   348)       173.2  Rx         0103  8  14 00 00 00 00 34 A4 00 
   349)       174.0  Rx         0102  8  15 00 00 00 00 34 A5 00 
   350)       174.3  Rx         0103  8  14 00 00 00 01 34 A5 00 
   351)       175.0  Rx         0102  8  15 00 00 00 00 34 A6 00 
   352)       175.3  Rx         0103  8  14 00 00 00 01 34 A6 00 
   353)       176.0  Rx         0102  8  15 00 00 00 00 34 A7 00 
   354)       176.3  Rx         0103  8  14 00 00 00 00 34 A7 00 
   355)       177.0  Rx         0102  8  15 00 00 00 00 34 A8 00 
   356)       177.3  Rx         0103  8  14 00 00 00 01 34 A8 00 
   357)       178.0  Rx         0102  8  15 00 00 00 00 34 A9 00 
   358)       178.3  Rx         0103  8  14 00 00 00 02 34 A9 00 
   359)       179.0  Rx         0102  8  15 00 00 00 00 34 AA 00 
   360)       179.3  Rx         0103  8  14 00 00 00 02 34 AA 00 
   361)       180.0  Rx         0102  8  15 00 00 00 00 34 AB 00 
   362)       180.2  Rx         0103  8  14 00 00 00 01 34 AB 00 
   363)       181.0  Rx         0102  8  15 00 00 00 00 34 AC 00 
   364)       181.3  Rx         0103  8  14 00 00 00 01 34 AC 00 
   365)       182.0  Rx         0102  8  15 00 00 00 00 34 AD 00 
   366)       182.3  Rx         0103  8  14 00 00 00 01 34 AD 00 
   367)       183.0  Rx         0102  8  15 00 00 00 00 34 AE 00 
   368)       183.3  Rx         0103  8  14 00 00 00 01 34 AE 00 
   369)       184.0  Rx         0102  8  15 00 00 00 00 34 AF 00 
   370)       184.3  Rx         0103  8  14 00 00 00 01 34 AF 00 
   371)       185.0  Rx         0102  8  15 00 00 00 00 34 B0 00 
   372)       185.3  Rx         0103  8  14 00 00 00 00 34 B0 00 
   373)       186.0  Rx         0102  8  15 00 00 00 00 34 B1 00 
   374)       186.3  Rx         0103  8  14 00 00 00 00 34 B1 00 
   375)       187.0  Rx         0102  8  15 00 00 00 00 34 B2 00 
   376)       187.2  Rx         0103  8  14 00 00 00 00 34 B2 00 
   377)       188.0  Rx         0102  8  15 00 00 00 00 34 B3 00 
   378)       188.3  Rx         0103  8  14 00 00 00 00 34 B3 00 
   379)       189.0  Rx         0102  8  15 00 00 00 00 34 B4 00 
   380)       189.2  Rx         0103  8  14 00 00 00 00 34 B4 00 
   381)       190.0  Rx         0102  8  15 00 00 00 00 34 B5 00 
   382)       190.3  Rx         0103  8  14 00 00 00 00 34 B5 00 
   383)       191.0  Rx         0102  8  15 00 00 00 00 34 B6 00 
   384)       191.3  Rx         0103  8  14 00 00 00 00 34 B6 00 
   385)       192.0  Rx         0102  8  15 00 00 00 00 34 B7 00 
   386)       192.3  Rx         0103  8  14 00 00 00 00 34 B7 00 
   387)       193.0  Rx         0102  8  15 00 00 00 00 34 B8 00 
   388)       193.3  Rx         0103  8  14 00 00 00 01 34 B8 00 
   389)       194.0  Rx         0102  8  15 00 00 00 00 34 B9 00 
   390)       194.2  Rx         0103  8  14 00 00 00 00 34 B9 00 
   391)       195.0  Rx         0102  8  15 00 00 00 00 34 BA 00 
   392)       195.3  Rx         0103  8  14 00 00 00 00 34 BA 00 
   393)       196.0  Rx         0102  8  15 00 00 00 00 34 BB 00 
   394)       196.2  Rx         0103  8  14 00 00 00 00 34 BB 00 
   395)       197.0  Rx         0102  8  15 00 00 00 00 34 BC 00 
   396)       197.3  Rx         0103  8  14 00 00 00 00 34 BC 00 
   397)       198.0  Rx         0102  8  15 00 00 00 00 34 BD 00 
   398)       198.2  Rx         0103  8  14 00 00 00 00 34 BD 00 
   399)       199.0  Rx         0102  8  15 00 00 00 00 34 BE 00 
   400)       199.3  Rx         0103  8  14 00 00 00 00 34 BE 00 
   401)       200.0  Rx         0102  8  15 00 00 00 00 34 BF 00 
   402)       200.3  Rx         0103  8  14 00 00 00 00 34 BF 00 
   403)       201.0  Rx         0102  8  15 00 00 00 00 34 C0 00 
   404)       201.3  Rx         0103  8  14 00 00 00 00 34 C0 00 
   405)       202.0  Rx         0102  8  15 00 00 00 00 34 C1 00 
   406)       202.3  Rx         0103  8  14 00 00 00 00 34 C1 00 
   407)       203.0  Rx         0102  8  15 00 00 00 00 34 C2 00 
   408)       203.2  Rx         0103  8  14 00 00 00 00 34 C2 00 
   409)       204.0  Rx         0102  8  15 00 00 00 00 34 C3 00 
   410)       204.3  Rx         0103  8  14 00 00 00 00 34 C3 00 
   411)       205.0  Rx         0102  8  15 00 00 00 00 34 C4 00 
   412)       205.3  Rx         0103  8  14 00 00 00 00 34 C4 00 
   413)       206.0  Rx         0102  8  15 00 00 00 00 34 C5 00 
   414)       206.3  Rx         0103  8  14 00 00 00 00 34 C5 00 
   415)       207.0  Rx         0102  8  15 00 00 00 00 34 C6 00 
   416)       207.3  Rx         0103  8  14 00 00 00 00 34 C6 00 
   417)       208.0  Rx         0102  8  15 00 00 00 00 34 C7 00 
   418)       208.3  Rx         0103  8  14 00 00 00 00 34 C7 00 
   419)       209.0  Rx         0102  8  15 00 00 00 00 34 C8 00 
   420)       209.3  Rx         0103  8  14 00 00 00 00 34 C8 00 
   421)       210.0  Rx         0102  8  15 00 00 00 00 34 C9 00 
   422)       210.3  Rx         0103  8  14 00 00 00 00 34 C9 00 
   423)       211.0  Rx         0102  8  15 00 00 00 00 34 CA 00 
   424)       211.3  Rx         0103  8  14 00 00 00 00 34 CA 00 
   425)       212.0  Rx         0102  8  15 00 00 00 00 34 CB 00 
   426)       212.2  Rx         0103  8  14 00 00 00 00 34 CB 00 
   427)       213.0  Rx         0102  8  15 00 00 00 00 34 CC 00 
   428)       213.3  Rx         0103  8  14 00 00 00 00 34 CC 00 
   429)       214.0  Rx         0102  8  15 00 00 00 00 34 CD 00 
   430)       214.2  Rx         0103  8  14 00 00 00 00 34 CD 00 
   431)       215.0  Rx         0102  8  15 00 00 00 00 34 CE 00 
   432)       215.3  Rx         0103  8  14 00 00 00 00 34 CE 00 
   433)       216.0  Rx         0102  8  15 00 00 00 00 34 CF 00 
   434)       216.3  Rx         0103  8  14 00 00 00 00 34 CF 00 
   435)       217.0  Rx         0102  8  15 00 00 00 00 34 D0 00 
   436)       217.3  Rx         0103  8  14 00 00 00 00 34 D0 00 
   437)       218.0  Rx         0102  8  15 00 00 00 00 34 D1 00 
   438)       218.3  Rx         0103  8  14 00 00 00 00 34 D1 00 
   439)       219.0  Rx         0102  8  15 00 00 00 00 34 D2 00 
   440)       219.2  Rx         0103  8  14 00 00 00 00 34 D2 00 
   441)       220.0  Rx         0102  8  15 00 00 00 00 34 D3 00 
   442)       220.3  Rx         0103  8  14 00 00 00 00 34 D3 00 
   443)       221.0  Rx         0102  8  15 00 00 00 00 34 D4 00 
   444)       221.2  Rx         0103  8  14 00 00 00 00 34 D4 00 
   445)       222.0  Rx         0102  8  15 00 00 00 00 34 D5 00 
   446)       222.3  Rx         0103  8  14 00 00 00 00 34 D5 00 
   447)       223.0  Rx         0102  8  15 00 00 00 00 34 D6 00 
   448)       223.3  Rx         0103  8  14 00 00 00 00 34 D6 00 
   449)       224.0  Rx         0102  8  15 00 00 00 00 34 D7 00 
   450)       224.3  Rx         0103  8  14 00 00 00 00 34 D7 00 
   451)       225.0  Rx         0102  8  15 00 00 00 00 34 D8 00 
   452)       225.3  Rx         0103  8  14 00 00 00 01 34 D8 00 
   453)       226.0  Rx         0102  8  15 00 00 00 00 34 D9 00 
   454)       226.2  Rx         0103  8  14 00 00 00 00 34 D9 00 
   455)       227.0  Rx         0102  8  15 00 00 00 00 34 DA 00 
   456)       227.3  Rx         0103  8  14 00 00 00 01 34 DA 00 
   457)       228.0  Rx         0102  8  15 00 00 00 00 34 DB 00 
   458)       228.2  Rx         0103  8  14 00 00 00 01 34 DB 00 
   459)       229.0  Rx         0102  8  15 00 00 00 00 34 DC 00 
   460)       229.3  Rx         0103  8  14 00 00 00 01 34 DC 00 
   461)       230.0  Rx         0102  8  15 00 00 00 00 34 DD 00 
   462)       230.2  Rx         0103  8  14 00 00 00 00 34 DD 00 
   463)       231.0  Rx         0102  8  15 00 00 00 00 34 DE 00 
   464)       231.3  Rx         0103  8  14 00 00 00 01 34 DE 00 
   465)       232.0  Rx         0102  8  15 00 00 00 00 34 DF 00 
   466)       232.3  Rx         0103  8  14 00 00 00 01 34 DF 00 
   467)       233.0  Rx         0102  8  15 00 00 00 00 34 E0 00 
   468)       233.3  Rx         0103  8  14 00 00 00 00 34 E0 00 
   469)       234.0  Rx         0102  8  15 00 00 00 00 34 E1 00 
   470)       234.3  Rx         0103  8  14 00 00 00 01 34 E1 00 
   471)       235.0  Rx         0102  8  15 00 00 00 00 34 E2 00 
   472)       235.2  Rx         0103  8  14 00 00 00 00 34 E2 00 
   473)       236.0  Rx         0102  8  15 00 00 00 00 34 E3 00 
   474)       236.3  Rx         0103  8  14 00 00 00 00 34 E3 00 
   475)       237.0  Rx         0102  8  15 00 00 00 00 34 E4 00 
   476)       237.2  Rx         0103  8  14 00 00 00 01 34 E4 00 
   477)       238.0  Rx         0102  8  15 00 00 00 00 34 E5 00 
   478)       238.3  Rx         0103  8  14 00 00 00 00 34 E5 00 
   479)       239.0  Rx         0102  8  15 00 00 00 00 34 E6 00 
   480)       239.3  Rx         0103  8  14 00 00 00 00 34 E6 00 
   481)       240.0  Rx         0102  8  15 00 00 00 00 34 E7 00 
   482)       240.3  Rx         0103  8  14 00 00 00 00 34 E7 00 
   483)       241.0  Rx         0102  8  15 00 00 00 00 34 E8 00 
   484)       241.3  Rx         0103  8  14 00 00 00 00 34 E8 00 
   485)       242.0  Rx         0102  8  15 00 00 00 00 34 E9 00 
   486)       242.2  Rx         0103  8  14 00 00 00 00 34 E9 00 
   487)       243.0  Rx         0102  8  15 00 00 00 00 34 EA 00 
   488)       243.3  Rx         0103  8  14 00 00 00 00 34 EA 00 
   489)       244.0  Rx         0102  8  15 00 00 00 00 34 EB 00 
   490)       244.2  Rx         0103  8  14 00 00 00 00 34 EB 00 
   491)       245.0  Rx         0102  8  15 00 00 00 00 34 EC 00 
   492)       245.3  Rx         0103  8  14 00 00 00 00 34 EC 00 
   493)       246.0  Rx         0102  8  15 00 00 00 00 34 ED 00 
   494)       246.2  Rx         0103  8  14 00 00 00 00 34 ED 00 
   495)       247.0  Rx         0102  8  15 00 00 00 00 34 EE 00 
   496)       247.3  Rx         0103  8  14 00 00 00 00 34 EE 00 
   497)       248.0  Rx         0102  8  15 00 00 00 00 34 EF 00 
   498)       248.3  Rx         0103  8  14 00 00 00 00 34 EF 00 
   499)       249.0  Rx         0102  8  15 00 00 00 00 34 F0 00 
   500)       249.3  Rx         0103  8  14 00 00 00 00 34 F0 00 
   501)       250.0  Rx         0102  8  15 00 00 00 00 34 F1 00 
   502)       250.3  Rx         0103  8  14 00 00 00 00 34 F1 00 
   503)       251.0  Rx         0102  8  15 00 00 00 00 34 F2 00 
   504)       251.2  Rx         0103  8  14 00 00 00 00 34 F2 00 
   505)       252.0  Rx         0102  8  15 00 00 00 00 34 F3 00 
   506)       252.3  Rx         0103  8  14 00 00 00 00 34 F3 00 
   507)       253.0  Rx         0102  8  15 00 00 00 00 34 F4 00 
   508)       253.2  Rx         0103  8  14 00 00 00 01 34 F4 00 
   509)       254.0  Rx         0102  8  15 00 00 00 00 34 F5 00 
   510)       254.3  Rx         0103  8  14 00 00 00 00 34 F5 00 
   511)       255.0  Rx         0102  8  15 00 00 00 00 34 F6 00 
   512)       255.3  Rx         0103  8  14 00 00 00 00 34 F6 00 
   513)       256.0  Rx         0102  8  15 00 00 00 00 34 F7 00 
   514)       256.3  Rx         0103  8  14 00 00 00 00 34 F7 00 
   515)       257.0  Rx         0102  8  15 00 00 00 00 34 F8 00 
   516)       257.3  Rx         0103  8  14 00 00 00 00 34 F8 00 
   517)       258.0  Rx         0102  8  15 00 00 00 00 34 F9 00 
   518)       258.3  Rx         0103  8  14 00 00 00 00 34 F9 00 
   519)       259.0  Rx         0102  8  15 00 00 00 00 34 FA 00 
   520)       259.3  Rx         0103  8  14 00 00 00 01 34 FA 00 
   521)       260.0  Rx         0102  8  15 00 00 00 01 34 FB 00 
   522)       260.2  Rx         0103  8  14 00 00 00 00 34 FB 00 
   523)       261.0  Rx         0102  8  15 00 00 00 00 34 FC 00 
   524)       261.3  Rx         0103  8  14 00 00 00 01 34 FC 00 
   525)       262.0  Rx         0102  8  15 00 00 00 00 34 FD 00 
   526)       262.2  Rx         0103  8  14 00 00 00 01 34 FD 00 
   527)       263.0  Rx         0102  8  15 00 00 00 00 34 FE 00 
   528)       263.3  Rx         0103  8  14 00 00 00 01 34 FE 00 
   529)       264.0  Rx         0102  8  15 00 00 00 00 34 FF 00 
   530)       264.3  Rx         0103  8  14 00 00 00 01 34 FF 00 
   531)       265.0  Rx         0102  8  15 00 00 00 00 35 00 00 
   532)       265.3  Rx         0103  8  14 00 00 00 01 35 00 00 
   533)       266.0  Rx         0102  8  15 00 00 00 00 35 01 00 
   534)       266.3  Rx         0103  8  14 00 00 00 01 35 01 00 
   535)       267.0  Rx         0102  8  15 00 00 00 00 35 02 00 
   536)       267.2  Rx         0103  8  14 00 00 00 01 35 02 00 
   537)       268.0  Rx         0102  8  15 00 00 00 00 35 03 00 
   538)       268.3  Rx         0103  8  14 00 00 00 01 35 03 00 
   539)       269.0  Rx         0102  8  15 00 00 00 00 35 04 00 
   540)       269.2  Rx         0103  8  14 00 00 00 01 35 04 00 
   541)       270.0  Rx         0102  8  15 00 00 00 01 35 05 00 
   542)       270.3  Rx         0103  8  14 00 00 00 01 35 05 00 
   543)       271.0  Rx         0102  8  15 00 00 00 01 35 06 00 
   544)       271.2  Rx         0103  8  14 00 00 00 00 35 06 00 
   545)       272.0  Rx         0102  8  15 00 00 00 01 35 07 00 
   546)       272.3  Rx         0103  8  14 00 00 00 00 35 07 00 
   547)       273.0  Rx         0102  8  15 00 00 00 01 35 08 00 
   548)       273.3  Rx         0103  8  14 00 00 00 00 35 08 00 
   549)       274.0  Rx         0102  8  15 00 00 00 01 35 09 00 
   550)       274.3  Rx         0103  8  14 00 00 00 00 35 09 00 
   551)       275.0  Rx         0102  8  15 00 00 00 01 35 0A 00 
   552)       275.3  Rx         0103  8  14 00 00 00 00 35 0A 00 
   553)       276.0  Rx         0102  8  15 00 00 00 01 35 0B 00 
   554)       276.2  Rx         0103  8  14 00 00 00 00 35 0B 00 
   555)       277.0  Rx         0102  8  15 00 00 00 00 35 0C 00 
   556)       277.3  Rx         0103  8  14 00 00 00 00 35 0C 00 
   557)       278.0  Rx         0102  8  15 00 00 00 00 35 0D 00 
   558)       278.2  Rx         0103  8  14 00 00 00 00 35 0D 00 
   559)       279.0  Rx         0102  8  15 00 00 00 00 35 0E 00 
   560)       279.3  Rx         0103  8  14 00 00 00 00 35 0E 00 
   561)       280.0  Rx         0102  8  15 00 00 00 00 35 0F 00 
   562)       280.3  Rx         0103  8  14 00 00 00 00 35 0F 00 
   563)       281.0  Rx         0102  8  15 00 00 00 00 35 10 00 
   564)       281.3  Rx         0103  8  14 00 00 00 00 35 10 00 
   565)       282.0  Rx         0102  8  15 00 00 00 00 35 11 00 
   566)       282.3  Rx         0103  8  14 00 00 00 00 35 11 00 
   567)       283.0  Rx         0102  8  15 00 00 00 00 35 12 00 
   568)       283.2  Rx         0103  8  14 00 00 00 00 35 12 00 
   569)       284.0  Rx         0102  8  15 00 00 00 00 35 13 00 
   570)       284.3  Rx         0103  8  14 00 00 00 00 35 13 00 
   571)       285.0  Rx         0102  8  15 00 00 00 00 35 14 00 
   572)       285.2  Rx         0103  8  14 00 00 00 00 35 14 00 
   573)       286.0  Rx         0102  8  15 00 00 00 00 35 15 00 
   574)       286.3  Rx         0103  8  14 00 00 00 00 35 15 00 
   575)       287.0  Rx         0102  8  15 00 00 00 00 35 16 00 
   576)       287.2  Rx         0103  8  14 00 00 00 00 35 16 00 
   577)       288.0  Rx         0102  8  15 00 00 00 00 35 17 00 
   578)       288.3  Rx         0103  8  14 00 00 00 00 35 17 00 
   579)       289.0  Rx         0102  8  15 00 00 00 00 35 18 00 
   580)       289.3  Rx         0103  8  14 00 00 00 00 35 18 00 
   581)       290.0  Rx         0102  8  15 00 00 00 00 35 19 00 
   582)       290.2  Rx         0103  8  14 00 00 00 00 35 19 00 
   583)       291.0  Rx         0102  8  15 00 00 00 00 35 1A 00 
   584)       291.3  Rx         0103  8  14 00 00 00 01 35 1A 00 
   585)       292.0  Rx         0102  8  15 00 00 00 00 35 1B 00 
   586)       292.2  Rx         0103  8  14 00 00 00 01 35 1B 00 
   587)       293.0  Rx         0102  8  15 00 00 00 00 35 1C 00 
   588)       293.3  Rx         0103  8  14 00 00 00 01 35 1C 00 
   589)       294.0  Rx         0102  8  15 00 00 00 00 35 1D 00 
   590)       294.2  Rx         0103  8  14 00 00 00 01 35 1D 00 
   591)       295.0  Rx         0102  8  15 00 00 00 00 35 1E 00 
   592)       295.3  Rx         0103  8  14 00 00 00 00 35 1E 00 
   593)       296.0  Rx         0102  8  15 00 00 00 00 35 1F 00 
   594)       296.3  Rx         0103  8  14 00 00 00 01 35 1F 00 
   595)       297.0  Rx         0102  8  15 00 00 00 00 35 20 00 
   596)       297.3  Rx         0103  8  14 00 00 00 00 35 20 00 
   597)       298.0  Rx         0102  8  15 00 00 00 00 35 21 00 
   598)       298.3  Rx         0103  8  14 00 00 00 00 35 21 00 
   599)       299.0  Rx         0102  8  15 00 00 00 00 35 22 00 
   600)       299.2  Rx         0103  8  14 00 00 00 00 35 22 00 
   601)       300.0  Rx         0102  8  15 00 00 00 00 35 23 00 
   602)       300.3  Rx         0103  8  14 00 00 00 00 35 23 00 
   603)       301.0  Rx         0102  8  15 00 00 00 00 35 24 00 
   604)       301.2  Rx         0103  8  14 00 00 00 00 35 24 00 
   605)       302.0  Rx         0102  8  15 00 00 00 01 35 25 00 
   606)       302.3  Rx         0103  8  14 00 00 00 01 35 25 00 
   607)       303.0  Rx         0102  8  15 00 00 00 00 35 26 00 
   608)       303.2  Rx         0103  8  14 00 00 00 01 35 26 00 
   609)       304.0  Rx         0102  8  15 00 00 00 00 35 27 00 
   610)       304.3  Rx         0103  8  14 00 00 00 01 35 27 00 
   611)       305.0  Rx         0102  8  15 00 00 00 00 35 28 00 
   612)       305.3  Rx         0103  8  14 00 00 00 01 35 28 00 
   613)       306.0  Rx         0102  8  15 00 00 00 00 35 29 00 
   614)       306.2  Rx         0103  8  14 00 00 00 01 35 29 00 
   615)       307.0  Rx         0102  8  15 00 00 00 00 35 2A 00 
   616)       307.3  Rx         0103  8  14 00 00 00 01 35 2A 00 
   617)       308.0  Rx         0102  8  15 00 00 00 00 35 2B 00 
   618)       308.2  Rx         0103  8  14 00 00 00 01 35 2B 00 
   619)       309.0  Rx         0102  8  15 00 00 00 00 35 2C 00 
   620)       309.3  Rx         0103  8  14 00 00 00 01 35 2C 00 
   621)       310.0  Rx         0102  8  15 00 00 00 00 35 2D 00 
   622)       310.2  Rx         0103  8  14 00 00 00 00 35 2D 00 
   623)       311.0  Rx         0102  8  15 00 00 00 01 35 2E 00 
   624)       311.3  Rx         0103  8  14 00 00 00 00 35 2E 00 
   625)       312.0  Rx         0102  8  15 00 00 00 00 35 2F 00 
   626)       312.3  Rx         0103  8  14 00 00 00 00 35 2F 00 
   627)       313.0  Rx         0102  8  15 00 00 00 00 35 30 00 
   628)       313.3  Rx         0103  8  14 00 00 00 00 35 30 00 
   629)       314.0  Rx         0102  8  15 00 00 00 00 35 31 00 
   630)       314.3  Rx         0103  8  14 00 00 00 00 35 31 00 
   631)       315.0  Rx         0102  8  15 00 00 00 00 35 32 00 
   632)       315.2  Rx         0103  8  14 00 00 00 00 35 32 00 
   633)       316.0  Rx         0102  8  15 00 00 00 00 35 33 00 
   634)       316.3  Rx         0103  8  14 00 00 00 00 35 33 00 
   635)       317.0  Rx         0102  8  15 00 00 00 00 35 34 00 
   636)       317.2  Rx         0103  8  14 00 00 00 00 35 34 00 
   637)       318.0  Rx         0102  8  15 00 00 00 00 35 35 00 
   638)       318.3  Rx         0103  8  14 00 00 00 00 35 35 00 
   639)       319.0  Rx         0102  8  15 00 00 00 00 35 36 00 
   640)       319.2  Rx         0103  8  14 00 00 00 00 35 36 00 
   641)       320.0  Rx         0102  8  15 00 00 00 00 35 37 00 
   642)       320.3  Rx         0103  8  14 00 00 00 00 35 37 00 
   643)       321.0  Rx         0102  8  15 00 00 00 00 35 38 00 
   644)       321.3  Rx         0103  8  14 00 00 00 01 35 38 00 
   645)       322.0  Rx         0102  8  15 00 00 00 01 35 39 00 
   646)       322.3  Rx         0103  8  14 00 00 00 01 35 39 00 
   647)       323.0  Rx         0102  8  15 00 00 00 01 35 3A 00 
   648)       323.3  Rx         0103  8  14 00 00 00 01 35 3A 00 
   649)       324.0  Rx         0102  8  15 00 00 00 00 35 3B 00 
   650)       324.2  Rx         0103  8  14 00 00 00 01 35 3B 00 
   651)       325.0  Rx         0102  8  15 00 00 00 01 35 3C 00 
   652)       325.3  Rx         0103  8  14 00 00 00 01 35 3C 00 
   653)       326.0  Rx         0102  8  15 00 00 00 00 35 3D 00 
   654)       326.2  Rx         0103  8  14 00 00 00 01 35 3D 00 
   655)       327.0  Rx         0102  8  15 00 00 00 00 35 3E 00 
   656)       327.3  Rx         0103  8  14 00 00 00 00 35 3E 00 
   657)       328.0  Rx         0102  8  15 00 00 00 00 35 3F 00 
   658)       328.3  Rx         0103  8  14 00 00 00 00 35 3F 00 
   659)       329.0  Rx         0102  8  15 00 00 00 01 35 40 00 
   660)       329.3  Rx         0103  8  14 00 00 00 00 35 40 00 
   661)       330.0  Rx         0102  8  15 00 00 00 00 35 41 00 
   662)       330.3  Rx         0103  8  14 00 00 00 00 35 41 00 
   663)       331.0  Rx         0102  8  15 00 00 00 00 35 42 00 
   664)       331.2  Rx         0103  8  14 00 00 00 00 35 42 00 
   665)       332.0  Rx         0102  8  15 00 00 00 00 35 43 00 
   666)       332.3  Rx         0103  8  14 00 00 00 00 35 43 00 
   667)       333.0  Rx         0102  8  15 00 00 00 00 35 44 00 
   668)       333.2  Rx         0103  8  14 00 00 00 00 35 44 00 
   669)       334.0  Rx         0102  8  15 00 00 00 00 35 45 00 
   670)       334.3  Rx         0103  8  14 00 00 00 00 35 45 00 
   671)       335.0  Rx         0102  8  15 00 00 00 00 35 46 00 
   672)       335.2  Rx         0103  8  14 00 00 00 00 35 46 00 
   673)       336.0  Rx         0102  8  15 00 00 00 00 35 47 00 
   674)       336.3  Rx         0103  8  14 00 00 00 00 35 47 00 
   675)       337.0  Rx         0102  8  15 00 00 00 00 35 48 00 
   676)       337.3  Rx         0103  8  14 00 00 00 00 35 48 00 
   677)       338.0  Rx         0102  8  15 00 00 00 00 35 49 00 
   678)       338.3  Rx         0103  8  14 00 00 00 00 35 49 00 
   679)       339.0  Rx         0102  8  15 00 00 00 00 35 4A 00 
   680)       339.3  Rx         0103  8  14 00 00 00 00 35 4A 00 
   681)       340.0  Rx         0102  8  15 00 00 00 01 35 4B 00 
   682)       340.2  Rx         0103  8  14 00 00 00 00 35 4B 00 
   683)       341.0  Rx         0102  8  15 00 00 00 01 35 4C 00 
   684)       341.3  Rx         0103  8  14 00 00 00 01 35 4C 00 
   685)       342.0  Rx         0102  8  15 00 00 00 01 35 4D 00 
   686)       342.2  Rx         0103  8  14 00 00 00 00 35 4D 00 
   687)       343.0  Rx         0102  8  15 00 00 00 01 35 4E 00 
   688)       343.3  Rx         0103  8  14 00 00 00 01 35 4E 00 
   689)       344.0  Rx         0102  8  15 00 00 00 01 35 4F 00 
   690)       344.2  Rx         0103  8  14 00 00 00 01 35 4F 00 
   691)       345.0  Rx         0102  8  15 00 00 00 01 35 50 00 
   692)       345.3  Rx         0103  8  14 00 00 00 01 35 50 00 
   693)       346.0  Rx         0102  8  15 00 00 00 01 35 51 00 
   694)       346.3  Rx         0103  8  14 00 00 00 01 35 51 00 
   695)       347.0  Rx         0102  8  15 00 00 00 01 35 52 00 
   696)       347.2  Rx         0103  8  14 00 00 00 00 35 52 00 
   697)       348.0  Rx         0102  8  15 00 00 00 00 35 53 00 
   698)       348.3  Rx         0103  8  14 00 00 00 00 35 53 00 
   699)       349.0  Rx         0102  8  15 00 00 00 00 35 54 00 
   700)       349.2  Rx         0103  8  14 00 00 00 00 35 54 00 
   701)       350.0  Rx         0102  8  15 00 00 00 00 35 55 00 
   702)       350.3  Rx         0103  8  14 00 00 00 00 35 55 00 
   703)       351.0  Rx         0102  8  15 00 00 00 00 35 56 00 
   704)       351.2  Rx         0103  8  14 00 00 00 00 35 56 00 
   705)       352.0  Rx         0102  8  15 00 00 00 01 35 57 00 
   706)       352.3  Rx         0103  8  14 00 00 00 00 35 57 00 
   707)       353.0  Rx         0102  8  15 00 00 00 00 35 58 00 
   708)       353.3  Rx         0103  8  14 00 00 00 00 35 58 00 
   709)       354.0  Rx         0102  8  15 00 00 00 01 35 59 00 
   710)       354.3  Rx         0103  8  14 00 00 00 00 35 59 00 
   711)       355.0  Rx         0102  8  15 00 00 00 01 35 5A 00 
   712)       355.3  Rx         0103  8  14 00 00 00 00 35 5A 00 
   713)       356.0  Rx         0102  8  15 00 00 00 01 35 5B 00 
   714)       356.2  Rx         0103  8  14 00 00 00 00 35 5B 00 
   715)       357.0  Rx         0102  8  15 00 00 00 01 35 5C 00 
   716)       357.3  Rx         0103  8  14 00 00 00 00 35 5C 00 
   717)       358.0  Rx         0102  8  15 00 00 00 01 35 5D 00 
   718)       358.2  Rx         0103  8  14 00 00 00 00 35 5D 00 
   719)       359.0  Rx         0102  8  15 00 00 00 01 35 5E 00 
   720)       359.3  Rx         0103  8  14 00 00 00 00 35 5E 00 
   721)       360.0  Rx         0102  8  15 00 00 00 00 35 5F 00 
   722)       360.2  Rx         0103  8  14 00 00 00 00 35 5F 00 
   723)       361.0  Rx         0102  8  15 00 00 00 00 35 60 00 
   724)       361.3  Rx         0103  8  14 00 00 00 00 35 60 00 
   725)       362.0  Rx         0102  8  15 00 00 00 00 35 61 00 
   726)       362.3  Rx         0103  8  14 00 00 00 00 35 61 00 
   727)       363.0  Rx         0102  8  15 00 00 00 00 35 62 00 
   728)       363.2  Rx         0103  8  14 00 00 00 00 35 62 00 
   729)       364.0  Rx         0102  8  15 00 00 00 00 35 63 00 
   730)       364.3  Rx         0103  8  14 00 00 00 00 35 63 00 
   731)       365.0  Rx         0102  8  15 00 00 00 00 35 64 00 
   732)       365.2  Rx         0103  8  14 00 00 00 00 35 64 00 
   733)       366.0  Rx         0102  8  15 00 00 00 00 35 65 00 
   734)       366.3  Rx         0103  8  14 00 00 00 00 35 65 00 
   735)       367.0  Rx         0102  8  15 00 00 00 00 35 66 00 
   736)       367.2  Rx         0103  8  14 00 00 00 00 35 66 00 
   737)       368.0  Rx         0102  8  15 00 00 00 00 35 67 00 
   738)       368.3  Rx         0103  8  14 00 00 00 00 35 67 00 
   739)       369.0  Rx         0102  8  15 00 00 00 00 35 68 00 
   740)       369.3  Rx         0103  8  14 00 00 00 00 35 68 00 
   741)       370.0  Rx         0102  8  15 00 00 00 00 35 69 00 
   742)       370.2  Rx         0103  8  14 00 00 00 00 35 69 00 
   743)       371.0  Rx         0102  8  15 00 00 00 00 35 6A 00 
   744)       371.3  Rx         0103  8  14 00 00 00 00 35 6A 00 
   745)       372.0  Rx         0102  8  15 00 00 00 00 35 6B 00 
   746)       372.2  Rx         0103  8  14 00 00 00 00 35 6B 00 
   747)       373.0  Rx         0102  8  15 00 00 00 00 35 6C 00 
   748)       373.3  Rx         0103  8  14 00 00 00 00 35 6C 00 
   749)       374.0  Rx         0102  8  15 00 00 00 00 35 6D 00 
   750)       374.2  Rx         0103  8  14 00 00 00 00 35 6D 00 
   751)       375.0  Rx         0102  8  15 00 00 00 00 35 6E 00 
   752)       375.3  Rx         0103  8  14 00 00 00 00 35 6E 00 
   753)       376.0  Rx         0102  8  15 00 00 00 00 35 6F 00 
   754)       376.2  Rx         0103  8  14 00 00 00 00 35 6F 00 
   755)       377.0  Rx         0102  8  15 00 00 00 01 35 70 00 
   756)       377.3  Rx         0103  8  14 00 00 00 00 35 70 00 
   757)       378.0  Rx         0102  8  15 00 00 00 01 35 71 00 
   758)       378.3  Rx         0103  8  14 00 00 00 00 35 71 00 
   759)       379.0  Rx         0102  8  15 00 00 00 01 35 72 00 
   760)       379.2  Rx         0103  8  14 00 00 00 00 35 72 00 
   761)       380.0  Rx         0102  8  15 00 00 00 01 35 73 00 
   762)       380.3  Rx         0103  8  14 00 00 00 00 35 73 00 
   763)       381.0  Rx         0102  8  15 00 00 00 01 35 74 00 
   764)       381.2  Rx         0103  8  14 00 00 00 00 35 74 00 
   765)       382.0  Rx         0102  8  15 00 00 00 01 35 75 00 
   766)       382.3  Rx         0103  8  14 00 00 00 00 35 75 00 
   767)       383.0  Rx         0102  8  15 00 00 00 01 35 76 00 
   768)       383.2  Rx         0103  8  14 00 00 00 00 35 76 00 
   769)       384.0  Rx         0102  8  15 00 00 00 01 35 77 00 
   770)       384.2  Rx         0103  8  14 00 00 00 00 35 77 00 
   771)       385.0  Rx         0102  8  15 00 00 00 01 35 78 00 
   772)       385.3  Rx         0103  8  14 00 00 00 00 35 78 00 
   773)       386.0  Rx         0102  8  15 00 00 00 00 35 79 00 
   774)       386.2  Rx         0103  8  14 00 00 00 00 35 79 00 
   775)       387.0  Rx         0102  8  15 00 00 00 00 35 7A 00 
   776)       387.3  Rx         0103  8  14 00 00 00 00 35 7A 00 
   777)       388.0  Rx         0102  8  15 00 00 00 00 35 7B 00 
   778)       388.2  Rx         0103  8  14 00 00 00 00 35 7B 00 
   779)       389.0  Rx         0102  8  15 00 00 00 00 35 7C 00 
   780)       389.3  Rx         0103  8  14 00 00 00 00 35 7C 00 
   781)       390.0  Rx         0102  8  15 00 00 00 00 35 7D 00 
   782)       390.2  Rx         0103  8  14 00 00 00 00 35 7D 00 
   783)       391.0  Rx         0102  8  15 00 00 00 00 35 7E 00 
   784)       391.3  Rx         0103  8  14 00 00 00 00 35 7E 00 
   785)       392.0  Rx         0102  8  15 00 00 00 00 35 7F 00 
   786)       392.2  Rx         0103  8  14 00 00 00 00 35 7F 00 
   787)       393.0  Rx         0102  8  15 00 00 00 00 35 80 00 
   788)       393.3  Rx         0103  8  14 00 00 00 00 35 80 00 
   789)       394.0  Rx         0102  8  15 00 00 00 00 35 81 00 
   790)       394.3  Rx         0103  8  14 00 00 00 00 35 81 00 
   791)       395.0  Rx         0102  8  15 00 00 00 00 35 82 00 
   792)       395.3  Rx         0103  8  14 00 00 00 00 35 82 00 
   793)       396.0  Rx         0102  8  15 00 00 00 00 35 83 00 
   794)       396.3  Rx         0103  8  14 00 00 00 00 35 83 00 
   795)       397.0  Rx         0102  8  15 00 00 00 00 35 84 00 
   796)       397.2  Rx         0103  8  14 00 00 00 00 35 84 00 
   797)       398.0  Rx         0102  8  15 00 00 00 00 35 85 00 
   798)       398.3  Rx         0103  8  14 00 00 00 00 35 85 00 
   799)       399.0  Rx         0102  8  15 00 00 00 00 35 86 00 
   800)       399.2  Rx         0103  8  14 00 00 00 00 35 86 00 
   801)       400.0  Rx         0102  8  15 00 00 00 00 35 87 00 
   802)       400.3  Rx         0103  8  14 00 00 00 00 35 87 00 
   803)       401.0  Rx         0102  8  15 00 00 00 00 35 88 00 
   804)       401.2  Rx         0103  8  14 00 00 00 00 35 88 00 
   805)       402.0  Rx         0102  8  15 00 00 00 00 35 89 00 
   806)       402.2  Rx         0103  8  14 00 00 00 00 35 89 00 
   807)       403.0  Rx         0102  8  15 00 00 00 00 35 8A 00 
   808)       403.3  Rx         0103  8  14 00 00 00 00 35 8A 00 
   809)       404.0  Rx         0102  8  15 00 00 00 00 35 8B 00 
   810)       404.2  Rx         0103  8  14 00 00 00 00 35 8B 00 
   811)       405.0  Rx         0102  8  15 00 00 00 00 35 8C 00 
   812)       405.3  Rx         0103  8  14 00 00 00 00 35 8C 00 
   813)       406.0  Rx         0102  8  15 00 00 00 00 35 8D 00 
   814)       406.2  Rx         0103  8  14 00 00 00 00 35 8D 00 
   815)       407.0  Rx         0102  8  15 00 00 00 01 35 8E 00 
   816)       407.3  Rx         0103  8  14 00 00 00 00 35 8E 00 
   817)       408.0  Rx         0102  8  15 00 00 00 01 35 8F 00 
   818)       408.2  Rx         0103  8  14 00 00 00 00 35 8F 00 
   819)       409.0  Rx         0102  8  15 00 00 00 01 35 90 00 
   820)       409.3  Rx         0103  8  14 00 00 00 00 35 90 00 
   821)       410.0  Rx         0102  8  15 00 00 00 01 35 91 00 
   822)       410.3  Rx         0103  8  14 00 00 00 01 35 91 00 
   823)       411.0  Rx         0102  8  15 00 00 00 01 35 92 00 
   824)       411.2  Rx         0103  8  14 00 00 00 00 35 92 00 
   825)       412.0  Rx         0102  8  15 00 00 00 01 35 93 00 
   826)       412.3  Rx         0103  8  14 00 00 00 00 35 93 00 
   827)       413.0  Rx         0102  8  15 00 00 00 01 35 94 00 
   828)       413.2  Rx         0103  8  14 00 00 00 00 35 94 00 
   829)       414.0  Rx         0102  8  15 00 00 00 00 35 95 00 
   830)       414.3  Rx         0103  8  14 00 00 00 00 35 95 00 
   831)       415.0  Rx         0102  8  15 00 00 00 00 35 96 00 
   832)       415.2  Rx         0103  8  14 00 00 00 00 35 96 00 
   833)       416.0  Rx         0102  8  15 00 00 00 00 35 97 00 
   834)       416.3  Rx         0103  8  14 00 00 00 00 35 97 00 
   835)       417.0  Rx         0102  8  15 00 00 00 00 35 98 00 
   836)       417.2  Rx         0103  8  14 00 00 00 00 35 98 00 
   837)       418.0  Rx         0102  8  15 00 00 00 00 35 99 00 
   838)       418.3  Rx         0103  8  14 00 00 00 00 35 99 00 
   839)       419.0  Rx         0102  8  15 00 00 00 00 35 9A 00 
   840)       419.3  Rx         0103  8  14 00 00 00 00 35 9A 00 
   841)       420.0  Rx         0102  8  15 00 00 00 00 35 9B 00 
   842)       420.2  Rx         0103  8  14 00 00 00 00 35 9B 00 
   843)       421.0  Rx         0102  8  15 00 00 00 00 35 9C 00 
   844)       421.3  Rx         0103  8  14 00 00 00 00 35 9C 00 
   845)       422.0  Rx         0102  8  15 00 00 00 00 35 9D 00 
   846)       422.2  Rx         0103  8  14 00 00 00 00 35 9D 00 
   847)       423.0  Rx         0102  8  15 00 00 00 00 35 9E 00 
   848)       423.3  Rx         0103  8  14 00 00 00 00 35 9E 00 
   849)       424.0  Rx         0102  8  15 00 00 00 00 35 9F 00 
   850)       424.2  Rx         0103  8  14 00 00 00 01 35 9F 00 
   851)       425.0  Rx         0102  8  15 00 00 00 00 35 A0 00 
   852)       425.3  Rx         0103  8  14 00 00 00 00 35 A0 00 
   853)       426.0  Rx         0102  8  15 00 00 00 00 35 A1 00 
   854)       426.3  Rx         0103  8  14 00 00 00 00 35 A1 00 
   855)       427.0  Rx         0102  8  15 00 00 00 00 35 A2 00 
   856)       427.2  Rx         0103  8  14 00 00 00 00 35 A2 00 
   857)       428.0  Rx         0102  8  15 00 00 00 00 35 A3 00 
   858)       428.3  Rx         0103  8  14 00 00 00 00 35 A3 00 
   859)       429.0  Rx         0102  8  15 00 00 00 00 35 A4 00 
   860)       429.2  Rx         0103  8  14 00 00 00 00 35 A4 00 
   861)       430.0  Rx         0102  8  15 00 00 00 00 35 A5 00 
   862)       430.3  Rx         0103  8  14 00 00 00 00 35 A5 00 
   863)       431.0  Rx         0102  8  15 00 00 00 00 35 A6 00 
   864)       431.2  Rx         0103  8  14 00 00 00 00 35 A6 00 
   865)       432.0  Rx         0102  8  15 00 00 00 00 35 A7 00 
   866)       432.2  Rx         0103  8  14 00 00 00 00 35 A7 00 
   867)       433.0  Rx         0102  8  15 00 00 00 00 35 A8 00 
   868)       433.2  Rx         0103  8  14 00 00 00 00 35 A8 00 
   869)       434.0  Rx         0102  8  15 00 00 00 00 35 A9 00 
   870)       434.3  Rx         0103  8  14 00 00 00 00 35 A9 00 
   871)       435.0  Rx         0102  8  15 00 00 00 00 35 AA 00 
   872)       435.3  Rx         0103  8  14 00 00 00 00 35 AA 00 
   873)       436.0  Rx         0102  8  15 00 00 00 00 35 AB 00 
   874)       436.2  Rx         0103  8  14 00 00 00 00 35 AB 00 
   875)       437.0  Rx         0102  8  15 00 00 00 00 35 AC 00 
   876)       437.3  Rx         0103  8  14 00 00 00 00 35 AC 00 
   877)       438.0  Rx         0102  8  15 00 00 00 00 35 AD 00 
   878)       438.2  Rx         0103  8  14 00 00 00 01 35 AD 00 
   879)       439.0  Rx         0102  8  15 00 00 00 00 35 AE 00 
   880)       439.3  Rx         0103  8  14 00 00 00 01 35 AE 00 
   881)       440.0  Rx         0102  8  15 00 00 00 00 35 AF 00 
   882)       440.2  Rx         0103  8  14 00 00 00 01 35 AF 00 
   883)       441.0  Rx         0102  8  15 00 00 00 00 35 B0 00 
   884)       441.3  Rx         0103  8  14 00 00 00 01 35 B0 00 
   885)       442.0  Rx         0102  8  15 00 00 00 00 35 B1 00 
   886)       442.3  Rx         0103  8  14 00 00 00 01 35 B1 00 
   887)       443.0  Rx         0102  8  15 00 00 00 01 35 B2 00 
   888)       443.2  Rx         0103  8  14 00 00 00 01 35 B2 00 
   889)       444.0  Rx         0102  8  15 00 00 00 01 35 B3 00 
   890)       444.3  Rx         0103  8  14 00 00 00 00 35 B3 00 
   891)       445.0  Rx         0102  8  15 00 00 00 01 35 B4 00 
   892)       445.2  Rx         0103  8  14 00 00 00 01 35 B4 00 
   893)       446.0  Rx         0102  8  15 00 00 00 01 35 B5 00 
   894)       446.3  Rx         0103  8  14 00 00 00 01 35 B5 00 
   895)       447.0  Rx         0102  8  15 00 00 00 01 35 B6 00 
   896)       447.2  Rx         0103  8  14 00 00 00 00 35 B6 00 
   897)       448.0  Rx         0102  8  15 00 00 00 01 35 B7 00 
   898)       448.3  Rx         0103  8  14 00 00 00 00 35 B7 00 
   899)       449.0  Rx         0102  8  15 00 00 00 00 35 B8 00 
   900)       449.2  Rx         0103  8  14 00 00 00 00 35 B8 00 
   901)       450.0  Rx         0102  8  15 00 00 00 00 35 B9 00 
   902)       450.2  Rx         0103  8  14 00 00 00 00 35 B9 00 
   903)       451.0  Rx         0102  8  15 00 00 00 00 35 BA 00 
   904)       451.3  Rx         0103  8  14 00 00 00 00 35 BA 00 
   905)       452.0  Rx         0102  8  15 00 00 00 00 35 BB 00 
   906)       452.2  Rx         0103  8  14 00 00 00 00 35 BB 00 
   907)       453.0  Rx         0102  8  15 00 00 00 00 35 BC 00 
   908)       453.3  Rx         0103  8  14 00 00 00 00 35 BC 00 
   909)       454.0  Rx         0102  8  15 00 00 00 00 35 BD 00 
   910)       454.2  Rx         0103  8  14 00 00 00 00 35 BD 00 
   911)       455.0  Rx         0102  8  15 00 00 00 00 35 BE 00 
   912)       455.3  Rx         0103  8  14 00 00 00 00 35 BE 00 
   913)       456.0  Rx         0102  8  15 00 00 00 00 35 BF 00 
   914)       456.2  Rx         0103  8  14 00 00 00 00 35 BF 00 
   915)       457.0  Rx         0102  8  15 00 00 00 00 35 C0 00 
   916)       457.3  Rx         0103  8  14 00 00 00 00 35 C0 00 
   917)       458.0  Rx         0102  8  15 00 00 00 00 35 C1 00 
   918)       458.3  Rx         0103  8  14 00 00 00 00 35 C1 00 
   919)       459.0  Rx         0102  8  15 00 00 00 00 35 C2 00 
   920)       459.2  Rx         0103  8  14 00 00 00 00 35 C2 00 
   921)       460.0  Rx         0102  8  15 00 00 00 00 35 C3 00 
   922)       460.3  Rx         0103  8  14 00 00 00 00 35 C3 00 
   923)       461.0  Rx         0102  8  15 00 00 00 00 35 C4 00 
   924)       461.2  Rx         0103  8  14 00 00 00 00 35 C4 00 
   925)       462.0  Rx         0102  8  15 00 00 00 00 35 C5 00 
   926)       462.3  Rx         0103  8  14 00 00 00 00 35 C5 00 
   927)       463.0  Rx         0102  8  15 00 00 00 00 35 C6 00 
   928)       463.2  Rx         0103  8  14 00 00 00 00 35 C6 00 
   929)       464.0  Rx         0102  8  15 00 00 00 00 35 C7 00 
   930)       464.3  Rx         0103  8  14 00 00 00 00 35 C7 00 
   931)       465.0  Rx         0102  8  15 00 00 00 01 35 C8 00 
   932)       465.2  Rx         0103  8  14 00 00 00 00 35 C8 00 
   933)       466.0  Rx         0102  8  15 00 00 00 01 35 C9 00 
   934)       466.2  Rx         0103  8  14 00 00 00 00 35 C9 00 
   935)       467.0  Rx         0102  8  15 00 00 00 00 35 CA 00 
   936)       467.3  Rx         0103  8  14 00 00 00 00 35 CA 00 
   937)       468.0  Rx         0102  8  15 00 00 00 00 35 CB 00 
   938)       468.2  Rx         0103  8  14 00 00 00 00 35 CB 00 
   939)       469.0  Rx         0102  8  15 00 00 00 00 35 CC 00 
   940)       469.3  Rx         0103  8  14 00 00 00 00 35 CC 00 
   941)       470.0  Rx         0102  8  15 00 00 00 00 35 CD 00 
   942)       470.2  Rx         0103  8  14 00 00 00 00 35 CD 00 
   943)       471.0  Rx         0102  8  15 00 00 00 00 35 CE 00 
   944)       471.3  Rx         0103  8  14 00 00 00 00 35 CE 00 
   945)       472.0  Rx         0102  8  15 00 00 00 00 35 CF 00 
   946)       472.2  Rx         0103  8  14 00 00 00 00 35 CF 00 
   947)       473.0  Rx         0102  8  15 00 00 00 00 35 D0 00 
   948)       473.2  Rx         0103  8  14 00 00 00 01 35 D0 00 
   949)       474.0  Rx         0102  8  15 00 00 00 00 35 D1 00 
   950)       474.2  Rx         0103  8  14 00 00 00 00 35 D1 00 
   951)       475.0  Rx         0102  8  15 00 00 00 01 35 D2 00 
   952)       475.2  Rx         0103  8  14 00 00 00 00 35 D2 00 
   953)       476.0  Rx         0102  8  15 00 00 00 01 35 D3 00 
   954)       476.3  Rx         0103  8  14 00 00 00 00 35 D3 00 
   955)       477.0  Rx         0102  8  15 00 00 00 01 35 D4 00 
   956)       477.2  Rx         0103  8  14 00 00 00 00 35 D4 00 
   957)       478.0  Rx         0102  8  15 00 00 00 01 35 D5 00 
   958)       478.3  Rx         0103  8  14 00 00 00 00 35 D5 00 
   959)       479.0  Rx         0102  8  15 00 00 00 01 35 D6 00 
   960)       479.2  Rx         0103  8  14 00 00 00 00 35 D6 00 
   961)       480.0  Rx         0102  8  15 00 00 00 00 35 D7 00 
   962)       480.3  Rx         0103  8  14 00 00 00 00 35 D7 00 
   963)       481.0  Rx         0102  8  15 00 00 00 00 35 D8 00 
   964)       481.2  Rx         0103  8  14 00 00 00 00 35 D8 00 
   965)       482.0  Rx         0102  8  15 00 00 00 00 35 D9 00 
   966)       482.2  Rx         0103  8  14 00 00 00 00 35 D9 00 
   967)       483.0  Rx         0102  8  15 00 00 00 00 35 DA 00 
   968)       483.3  Rx         0103  8  14 00 00 00 00 35 DA 00 
   969)       484.0  Rx         0102  8  15 00 00 00 00 35 DB 00 
   970)       484.2  Rx         0103  8  14 00 00 00 00 35 DB 00 
   971)       485.0  Rx         0102  8  15 00 00 00 00 35 DC 00 
   972)       485.3  Rx         0103  8  14 00 00 00 00 35 DC 00 
   973)       486.0  Rx         0102  8  15 00 00 00 00 35 DD 00 
   974)       486.2  Rx         0103  8  14 00 00 00 00 35 DD 00 
   975)       487.0  Rx         0102  8  15 00 00 00 00 35 DE 00 
   976)       487.3  Rx         0103  8  14 00 00 00 00 35 DE 00 
   977)       488.0  Rx         0102  8  15 00 00 00 00 35 DF 00 
   978)       488.2  Rx         0103  8  14 00 00 00 01 35 DF 00 
   979)       489.0  Rx         0102  8  15 00 00 00 00 35 E0 00 
   980)       489.3  Rx         0103  8  14 00 00 00 01 35 E0 00 
   981)       490.0  Rx         0102  8  15 00 00 00 00 35 E1 00 
   982)       490.2  Rx         0103  8  14 00 00 00 00 35 E1 00 
   983)       491.0  Rx         0102  8  15 00 00 00 00 35 E2 00 
   984)       491.2  Rx         0103  8  14 00 00 00 00 35 E2 00 
   985)       492.0  Rx         0102  8  15 00 00 00 00 35 E3 00 
   986)       492.3  Rx         0103  8  14 00 00 00 00 35 E3 00 
   987)       493.0  Rx         0102  8  15 00 00 00 00 35 E4 00 
   988)       493.2  Rx         0103  8  14 00 00 00 00 35 E4 00 
   989)       494.0  Rx         0102  8  15 00 00 00 00 35 E5 00 
   990)       494.3  Rx         0103  8  14 00 00 00 00 35 E5 00 
   991)       495.0  Rx         0102  8  15 00 00 00 00 35 E6 00 
   992)       495.2  Rx         0103  8  14 00 00 00 00 35 E6 00 
   993)       496.0  Rx         0102  8  15 00 00 00 00 35 E7 00 
   994)       496.2  Rx         0103  8  14 00 00 00 00 35 E7 00 
   995)       497.0  Rx         0102  8  15 00 00 00 00 35 E8 00 
   996)       497.2  Rx         0103  8  14 00 00 00 00 35 E8 00 
   997)       498.0  Rx         0102  8  15 00 00 00 00 35 E9 00 
   998)       498.3  Rx         0103  8  14 00 00 00 00 35 E9 00 
   999)       499.0  Rx         0102  8  15 00 00 00 00 35 EA 00 
  1000)       499.3  Rx         0103  8  14 00 00 00 00 35 EA 00 
  1001)       500.0  Rx         0102  8  15 00 00 00 00 35 EB 00 
  1002)       500.2  Rx         0103  8  14 00 00 00 00 35 EB 00 
  1003)       501.0  Rx         0102  8  15 00 00 00 00 35 EC 00 
  1004)       501.3  Rx         0103  8  14 00 00 00 00 35 EC 00 
  1005)       502.0  Rx         0102  8  15 00 00 00 01 35 ED 00 
  1006)       502.2  Rx         0103  8  14 00 00 00 00 35 ED 00 
  1007)       503.0  Rx         0102  8  15 00 00 00 00 35 EE 00 
  1008)       503.3  Rx         0103  8  14 00 00 00 00 35 EE 00 
  1009)       504.0  Rx         0102  8  15 00 00 00 00 35 EF 00 
  1010)       504.2  Rx         0103  8  14 00 00 00 00 35 EF 00 
  1011)       505.0  Rx         0102  8  15 00 00 00 01 35 F0 00 
  1012)       505.3  Rx         0103  8  14 00 00 00 00 35 F0 00 
  1013)       506.0  Rx         0102  8  15 00 00 00 01 35 F1 00 
  1014)       506.2  Rx         0103  8  14 00 00 00 00 35 F1 00 
  1015)       507.0  Rx         0102  8  15 00 00 00 00 35 F2 00 
  1016)       507.2  Rx         0103  8  14 00 00 00 00 35 F2 00 
  1017)       508.0  Rx         0102  8  15 00 00 00 00 35 F3 00 
  1018)       508.3  Rx         0103  8  14 00 00 00 00 35 F3 00 
  1019)       509.0  Rx         0102  8  15 00 00 00 01 35 F4 00 
  1020)       509.2  Rx         0103  8  14 00 00 00 00 35 F4 00 
  1021)       510.0  Rx         0102  8  15 00 00 00 00 35 F5 00 
  1022)       510.3  Rx         0103  8  14 00 00 00 00 35 F5 00 
  1023)       511.0  Rx         0102  8  15 00 00 00 00 35 F6 00 
  1024)       511.2  Rx         0103  8  14 00 00 00 00 35 F6 00 
  1025)       512.0  Rx         0102  8  15 00 00 00 00 35 F7 00 
  1026)       512.3  Rx         0103  8  14 00 00 00 00 35 F7 00 
  1027)       513.0  Rx         0102  8  15 00 00 00 00 35 F8 00 
  1028)       513.2  Rx         0103  8  14 00 00 00 00 35 F8 00 
  1029)       514.0  Rx         0102  8  15 00 00 00 00 35 F9 00 
  1030)       514.2  Rx         0103  8  14 00 00 00 00 35 F9 00 
  1031)       515.0  Rx         0102  8  15 00 00 00 00 35 FA 00 
  1032)       515.3  Rx         0103  8  14 00 00 00 00 35 FA 00 
  1033)       516.0  Rx         0102  8  15 00 00 00 00 35 FB 00 
  1034)       516.2  Rx         0103  8  14 00 00 00 00 35 FB 00 
  1035)       517.0  Rx         0102  8  15 00 00 00 00 35 FC 00 
  1036)       517.3  Rx         0103  8  14 00 00 00 00 35 FC 00 
  1037)       518.0  Rx         0102  8  15 00 00 00 00 35 FD 00 
  1038)       518.2  Rx         0103  8  14 00 00 00 00 35 FD 00 
  1039)       519.0  Rx         0102  8  15 00 00 00 00 35 FE 00 
  1040)       519.3  Rx         0103  8  14 00 00 00 00 35 FE 00 
  1041)       520.0  Rx         0102  8  15 00 00 00 00 35 FF 00 
  1042)       520.2  Rx         0103  8  14 00 00 00 00 35 FF 00 
  1043)       521.0  Rx         0102  8  15 00 00 00 00 36 00 00 
  1044)       521.3  Rx         0103  8  14 00 00 00 00 36 00 00 
  1045)       522.0  Rx         0102  8  15 00 00 00 00 36 01 00 
  1046)       522.2  Rx         0103  8  14 00 00 00 00 36 01 00 
  1047)       523.0  Rx         0102  8  15 00 00 00 00 36 02 00 
  1048)       523.2  Rx         0103  8  14 00 00 00 00 36 02 00 
  1049)       524.0  Rx         0102  8  15 00 00 00 00 36 03 00 
  1050)       524.3  Rx         0103  8  14 00 00 00 01 36 03 00 
  1051)       525.0  Rx         0102  8  15 00 00 00 00 36 04 00 
  1052)       525.2  Rx         0103  8  14 00 00 00 01 36 04 00 
  1053)       526.0  Rx         0102  8  15 00 00 00 00 36 05 00 
  1054)       526.3  Rx         0103  8  14 00 00 00 01 36 05 00 
  1055)       527.0  Rx         0102  8  15 00 00 00 00 36 06 00 
  1056)       527.2  Rx         0103  8  14 00 00 00 01 36 06 00 
  1057)       528.0  Rx         0102  8  15 00 00 00 00 36 07 00 
  1058)       528.3  Rx         0103  8  14 00 00 00 01 36 07 00 
  1059)       529.0  Rx         0102  8  15 00 00 00 00 36 08 00 
  1060)       529.2  Rx         0103  8  14 00 00 00 01 36 08 00 
  1061)       530.0  Rx         0102  8  15 00 00 00 00 36 09 00 
  1062)       530.3  Rx         0103  8  14 00 00 00 01 36 09 00 
  1063)       531.0  Rx         0102  8  15 00 00 00 00 36 0A 00 
  1064)       531.3  Rx         0103  8  14 00 00 00 00 36 0A 00 
  1065)       532.0  Rx         0102  8  15 00 00 00 00 36 0B 00 
  1066)       532.2  Rx         0103  8  14 00 00 00 00 36 0B 00 
  1067)       533.0  Rx         0102  8  15 00 00 00 00 36 0C 00 
  1068)       533.3  Rx         0103  8  14 00 00 00 00 36 0C 00 
  1069)       534.0  Rx         0102  8  15 00 00 00 00 36 0D 00 
  1070)       534.2  Rx         0103  8  14 00 00 00 00 36 0D 00 
  1071)       535.0  Rx         0102  8  15 00 00 00 00 36 0E 00 
  1072)       535.3  Rx         0103  8  14 00 00 00 00 36 0E 00 
  1073)       536.0  Rx         0102  8  15 00 00 00 00 36 0F 00 
  1074)       536.2  Rx         0103  8  14 00 00 00 00 36 0F 00 
  1075)       537.0  Rx         0102  8  15 00 00 00 00 36 10 00 
  1076)       537.3  Rx         0103  8  14 00 00 00 00 36 10 00 
  1077)       538.0  Rx         0102  8  15 00 00 00 00 36 11 00 
  1078)       538.2  Rx         0103  8  14 00 00 00 00 36 11 00 
  1079)       539.0  Rx         0102  8  15 00 00 00 00 36 12 00 
  1080)       539.2  Rx         0103  8  14 00 00 00 00 36 12 00 
  1081)       540.0  Rx         0102  8  15 00 00 00 00 36 13 00 
  1082)       540.3  Rx         0103  8  14 00 00 00 00 36 13 00 
  1083)       541.0  Rx         0102  8  15 00 00 00 00 36 14 00 
  1084)       541.2  Rx         0103  8  14 00 00 00 00 36 14 00 
  1085)       542.0  Rx         0102  8  15 00 00 00 00 36 15 00 
  1086)       542.3  Rx         0103  8  14 00 00 00 00 36 15 00 
  1087)       543.0  Rx         0102  8  15 00 00 00 00 36 16 00 
  1088)       543.2  Rx         0103  8  14 00 00 00 00 36 16 00 
  1089)       544.0  Rx         0102  8  15 00 00 00 00 36 17 00 
  1090)       544.3  Rx         0103  8  14 00 00 00 00 36 17 00 
  1091)       545.0  Rx         0102  8  15 00 00 00 00 36 18 00 
  1092)       545.2  Rx         0103  8  14 00 00 00 00 36 18 00 
  1093)       546.0  Rx         0102  8  15 00 00 00 00 36 19 00 
  1094)       546.2  Rx         0103  8  14 00 00 00 00 36 19 00 
  1095)       547.0  Rx         0102  8  15 00 00 00 00 36 1A 00 
  1096)       547.2  Rx         0103  8  14 00 00 00 00 36 1A 00 
  1097)       548.0  Rx         0102  8  15 00 00 00 00 36 1B 00 
  1098)       548.2  Rx         0103  8  14 00 00 00 00 36 1B 00 
  1099)       549.0  Rx         0102  8  15 00 00 00 00 36 1C 00 
  1100)       549.3  Rx         0103  8  14 00 00 00 00 36 1C 00 
  1101)       550.0  Rx         0102  8  15 00 00 00 01 36 1D 00 
  1102)       550.2  Rx         0103  8  14 00 00 00 00 36 1D 00 
  1103)       551.0  Rx         0102  8  15 00 00 00 01 36 1E 00 
  1104)       551.3  Rx         0103  8  14 00 00 00 00 36 1E 00 
  1105)       552.0  Rx         0102  8  15 00 00 00 01 36 1F 00 
  1106)       552.2  Rx         0103  8  14 00 00 00 00 36 1F 00 
  1107)       553.0  Rx         0102  8  15 00 00 00 01 36 20 00 
  1108)       553.3  Rx         0103  8  14 00 00 00 00 36 20 00 
  1109)       554.0  Rx         0102  8  15 00 00 00 01 36 21 00 
  1110)       554.2  Rx         0103  8  14 00 00 00 00 36 21 00 
  1111)       555.0  Rx         0102  8  15 00 00 00 01 36 22 00 
  1112)       555.2  Rx         0103  8  14 00 00 00 00 36 22 00 
  1113)       556.0  Rx         0102  8  15 00 00 00 01 36 23 00 
  1114)       556.3  Rx         0103  8  14 00 00 00 00 36 23 00 
  1115)       557.0  Rx         0102  8  15 00 00 00 01 36 24 00 
  1116)       557.2  Rx         0103  8  14 00 00 00 00 36 24 00 
  1117)       558.0  Rx         0102  8  15 00 00 00 01 36 25 00 
  1118)       558.3  Rx         0103  8  14 00 00 00 00 36 25 00 
  1119)       559.0  Rx         0102  8  15 00 00 00 01 36 26 00 
  1120)       559.2  Rx         0103  8  14 00 00 00 01 36 26 00 
  1121)       560.0  Rx         0102  8  15 00 00 00 01 36 27 00 
  1122)       560.2  Rx         0103  8  14 00 00 00 01 36 27 00 
  1123)       561.0  Rx         0102  8  15 00 00 00 01 36 28 00 
  1124)       561.2  Rx         0103  8  14 00 00 00 01 36 28 00 
  1125)       562.0  Rx         0102  8  15 00 00 00 00 36 29 00 
  1126)       562.2  Rx         0103  8  14 00 00 00 01 36 29 00 
  1127)       563.0  Rx         0102  8  15 00 00 00 00 36 2A 00 
  1128)       563.2  Rx         0103  8  14 00 00 00 01 36 2A 00 
  1129)       564.0  Rx         0102  8  15 00 00 00 01 36 2B 00 
  1130)       564.2  Rx         0103  8  14 00 00 00 01 36 2B 00 
  1131)       565.0  Rx         0102  8  15 00 00 00 00 36 2C 00 
  1132)       565.3  Rx         0103  8  14 00 00 00 01 36 2C 00 
  1133)       566.0  Rx         0102  8  15 00 00 00 00 36 2D 00 
  1134)       566.2  Rx         0103  8  14 00 00 00 00 36 2D 00 
  1135)       567.0  Rx         0102  8  15 00 00 00 00 36 2E 00 
  1136)       567.3  Rx         0103  8  14 00 00 00 00 36 2E 00 
  1137)       568.0  Rx         0102  8  15 00 00 00 00 36 2F 00 
  1138)       568.2  Rx         0103  8  14 00 00 00 01 36 2F 00 
  1139)       569.0  Rx         0102  8  15 00 00 00 01 36 30 00 
  1140)       569.3  Rx         0103  8  14 00 00 00 01 36 30 00 
  1141)       570.0  Rx         0102  8  15 00 00 00 01 36 31 00 
  1142)       570.2  Rx         0103  8  14 00 00 00 00 36 31 00 
  1143)       571.0  Rx         0102  8  15 00 00 00 01 36 32 00 
  1144)       571.2  Rx         0103  8  14 00 00 00 00 36 32 00 
  1145)       572.0  Rx         0102  8  15 00 00 00 01 36 33 00 
  1146)       572.3  Rx         0103  8  14 00 00 00 00 36 33 00 
  1147)       573.0  Rx         0102  8  15 00 00 00 01 36 34 00 
  1148)       573.2  Rx         0103  8  14 00 00 00 00 36 34 00 
  1149)       574.0  Rx         0102  8  15 00 00 00 00 36 35 00 
  1150)       574.3  Rx         0103  8  14 00 00 00 00 36 35 00 
  1151)       575.0  Rx         0102  8  15 00 00 00 01 36 36 00 
  1152)       575.2  Rx         0103  8  14 00 00 00 01 36 36 00 
  1153)       576.0  Rx         0102  8  15 00 00 00 00 36 37 00 
  1154)       576.2  Rx         0103  8  14 00 00 00 00 36 37 00 
  1155)       577.0  Rx         0102  8  15 00 00 00 00 36 38 00 
  1156)       577.2  Rx         0103  8  14 00 00 00 00 36 38 00 
  1157)       578.0  Rx         0102  8  15 00 00 00 00 36 39 00 
  1158)       578.2  Rx         0103  8  14 00 00 00 01 36 39 00 
  1159)       579.0  Rx         0102  8  15 00 00 00 01 36 3A 00 
  1160)       579.2  Rx         0103  8  14 00 00 00 01 36 3A 00 
  1161)       580.0  Rx         0102  8  15 00 00 00 01 36 3B 00 
  1162)       580.2  Rx         0103  8  14 00 00 00 01 36 3B 00 
  1163)       581.0  Rx         0102  8  15 00 00 00 00 36 3C 00 
  1164)       581.3  Rx         0103  8  14 00 00 00 01 36 3C 00 
  1165)       582.0  Rx         0102  8  15 00 00 00 00 36 3D 00 
  1166)       582.2  Rx         0103  8  14 00 00 00 01 36 3D 00 
  1167)       583.0  Rx         0102  8  15 00 00 00 00 36 3E 00 
  1168)       583.3  Rx         0103  8  14 00 00 00 01 36 3E 00 
  1169)       584.0  Rx         0102  8  15 00 00 00 00 36 3F 00 
  1170)       584.2  Rx         0103  8  14 00 00 00 01 36 3F 00 
  1171)       585.0  Rx         0102  8  15 00 00 00 00 36 40 00 
  1172)       585.3  Rx         0103  8  14 00 00 00 01 36 40 00 
  1173)       586.0  Rx         0102  8  15 00 00 00 00 36 41 00 
  1174)       586.2  Rx         0103  8  14 00 00 00 01 36 41 00 
  1175)       587.0  Rx         0102  8  15 00 00 00 00 36 42 00 
  1176)       587.2  Rx         0103  8  14 00 00 00 01 36 42 00 
  1177)       588.0  Rx         0102  8  15 00 00 00 00 36 43 00 
  1178)       588.3  Rx         0103  8  14 00 00 00 01 36 43 00 
  1179)       589.0  Rx         0102  8  15 00 00 00 00 36 44 00 
  1180)       589.2  Rx         0103  8  14 00 00 00 01 36 44 00 
  1181)       590.0  Rx         0102  8  15 00 00 00 00 36 45 00 
  1182)       590.3  Rx         0103  8  14 00 00 00 01 36 45 00 
  1183)       591.0  Rx         0102  8  15 00 00 00 00 36 46 00 
  1184)       591.2  Rx         0103  8  14 00 00 00 01 36 46 00 
  1185)       592.0  Rx         0102  8  15 00 00 00 00 36 47 00 
  1186)       592.2  Rx         0103  8  14 00 00 00 00 36 47 00 
  1187)       593.0  Rx         0102  8  15 00 00 00 00 36 48 00 
  1188)       593.2  Rx         0103  8  14 00 00 00 00 36 48 00 
  1189)       594.0  Rx         0102  8  15 00 00 00 00 36 49 00 
  1190)       594.2  Rx         0103  8  14 00 00 00 00 36 49 00 
  1191)       595.0  Rx         0102  8  15 00 00 00 01 36 4A 00 
  1192)       595.2  Rx         0103  8  14 00 00 00 00 36 4A 00 
  1193)       596.0  Rx         0102  8  15 00 00 00 01 36 4B 00 
  1194)       596.2  Rx         0103  8  14 00 00 00 00 36 4B 00 
  1195)       597.0  Rx         0102  8  15 00 00 00 01 36 4C 00 
  1196)       597.3  Rx         0103  8  14 00 00 00 00 36 4C 00 
  1197)       598.0  Rx         0102  8  15 00 00 00 01 36 4D 00 
  1198)       598.2  Rx         0103  8  14 00 00 00 00 36 4D 00 
  1199)       599.0  Rx         0102  8  15 00 00 00 01 36 4E 00 
  1200)       599.3  Rx         0103  8  14 00 00 00 00 36 4E 00 
  1201)       600.0  Rx         0102  8  15 00 00 00 00 36 4F 00 
  1202)       600.2  Rx         0103  8  14 00 00 00 00 36 4F 00 
  1203)       601.0  Rx         0102  8  15 00 00 00 00 36 50 00 
  1204)       601.3  Rx         0103  8  14 00 00 00 00 36 50 00 
  1205)       602.0  Rx         0102  8  15 00 00 00 01 36 51 00 
  1206)       602.2  Rx         0103  8  14 00 00 00 00 36 51 00 
  1207)       603.0  Rx         0102  8  15 00 00 00 00 36 52 00 
  1208)       603.2  Rx         0103  8  14 00 00 00 00 36 52 00 
  1209)       604.0  Rx         0102  8  15 00 00 00 00 36 53 00 
  1210)       604.2  Rx         0103  8  14 00 00 00 00 36 53 00 
  1211)       605.0  Rx         0102  8  15 00 00 00 00 36 54 00 
  1212)       605.2  Rx         0103  8  14 00 00 00 00 36 54 00 
  1213)       606.0  Rx         0102  8  15 00 00 00 00 36 55 00 
  1214)       606.3  Rx         0103  8  14 00 00 00 00 36 55 00 
  1215)       607.0  Rx         0102  8  15 00 00 00 00 36 56 00 
  1216)       607.2  Rx         0103  8  14 00 00 00 00 36 56 00 
  1217)       608.0  Rx         0102  8  15 00 00 00 01 36 57 00 
  1218)       608.3  Rx         0103  8  14 00 00 00 01 36 57 00 
  1219)       609.0  Rx         0102  8  15 00 00 00 01 36 58 00 
  1220)       609.2  Rx         0103  8  14 00 00 00 00 36 58 00 
  1221)       610.0  Rx         0102  8  15 00 00 00 01 36 59 00 
  1222)       610.2  Rx         0103  8  14 00 00 00 01 36 59 00 
  1223)       611.0  Rx         0102  8  15 00 00 00 00 36 5A 00 
  1224)       611.2  Rx         0103  8  14 00 00 00 01 36 5A 00 
  1225)       612.0  Rx         0102  8  15 00 00 00 00 36 5B 00 
  1226)       612.2  Rx         0103  8  14 00 00 00 01 36 5B 00 
  1227)       613.0  Rx         0102  8  15 00 00 00 00 36 5C 00 
  1228)       613.3  Rx         0103  8  14 00 00 00 01 36 5C 00 
  1229)       614.0  Rx         0102  8  15 00 00 00 00 36 5D 00 
  1230)       614.2  Rx         0103  8  14 00 00 00 01 36 5D 00 
  1231)       615.0  Rx         0102  8  15 00 00 00 00 36 5E 00 
  1232)       615.3  Rx         0103  8  14 00 00 00 00 36 5E 00 
  1233)       616.0  Rx         0102  8  15 00 00 00 00 36 5F 00 
  1234)       616.2  Rx         0103  8  14 00 00 00 01 36 5F 00 
  1235)       617.0  Rx         0102  8  15 00 00 00 00 36 60 00 
  1236)       617.2  Rx         0103  8  14 00 00 00 01 36 60 00 
  1237)       618.0  Rx         0102  8  15 00 00 00 00 36 61 00 
  1238)       618.2  Rx         0103  8  14 00 00 00 00 36 61 00 
  1239)       619.0  Rx         0102  8  15 00 00 00 00 36 62 00 
  1240)       619.2  Rx         0103  8  14 00 00 00 00 36 62 00 
  1241)       620.0  Rx         0102  8  15 00 00 00 00 36 63 00 
  1242)       620.2  Rx         0103  8  14 00 00 00 00 36 63 00 
  1243)       621.0  Rx         0102  8  15 00 00 00 00 36 64 00 
  1244)       621.2  Rx         0103  8  14 00 00 00 00 36 64 00 
  1245)       622.0  Rx         0102  8  15 00 00 00 00 36 65 00 
  1246)       622.3  Rx         0103  8  14 00 00 00 00 36 65 00 
  1247)       623.0  Rx         0102  8  15 00 00 00 00 36 66 00 
  1248)       623.2  Rx         0103  8  14 00 00 00 00 36 66 00 
  1249)       624.0  Rx         0102  8  15 00 00 00 00 36 67 00 
  1250)       624.2  Rx         0103  8  14 00 00 00 00 36 67 00 
  1251)       625.0  Rx         0102  8  15 00 00 00 00 36 68 00 
  1252)       625.2  Rx         0103  8  14 00 00 00 00 36 68 00 
  1253)       626.0  Rx         0102  8  15 00 00 00 00 36 69 00 
  1254)       626.2  Rx         0103  8  14 00 00 00 00 36 69 00 
  1255)       627.0  Rx         0102  8  15 00 00 00 00 36 6A 00 
  1256)       627.2  Rx         0103  8  14 00 00 00 00 36 6A 00 
  1257)       628.0  Rx         0102  8  15 00 00 00 00 36 6B 00 
  1258)       628.2  Rx         0103  8  14 00 00 00 00 36 6B 00 
  1259)       629.0  Rx         0102  8  15 00 00 00 00 36 6C 00 
  1260)       629.3  Rx         0103  8  14 00 00 00 00 36 6C 00 
  1261)       630.0  Rx         0102  8  15 00 00 00 00 36 6D 00 
  1262)       630.2  Rx         0103  8  14 00 00 00 00 36 6D 00 
  1263)       631.0  Rx         0102  8  15 00 00 00 00 36 6E 00 
  1264)       631.3  Rx         0103  8  14 00 00 00 00 36 6E 00 
  1265)       632.0  Rx         0102  8  15 00 00 00 00 36 6F 00 
  1266)       632.2  Rx         0103  8  14 00 00 00 00 36 6F 00 
  1267)       633.0  Rx         0102  8  15 00 00 00 00 36 70 00 
  1268)       633.3  Rx         0103  8  14 00 00 00 00 36 70 00 
  1269)       634.0  Rx         0102  8  15 00 00 00 00 36 71 00 
  1270)       634.2  Rx         0103  8  14 00 00 00 00 36 71 00 
  1271)       635.0  Rx         0102  8  15 00 00 00 00 36 72 00 
  1272)       635.2  Rx         0103  8  14 00 00 00 00 36 72 00 
  1273)       636.0  Rx         0102  8  15 00 00 00 00 36 73 00 
  1274)       636.2  Rx         0103  8  14 00 00 00 00 36 73 00 
  1275)       637.0  Rx         0102  8  15 00 00 00 00 36 74 00 
  1276)       637.2  Rx         0103  8  14 00 00 00 00 36 74 00 
  1277)       638.0  Rx         0102  8  15 00 00 00 00 36 75 00 
  1278)       638.3  Rx         0103  8  14 00 00 00 00 36 75 00 
  1279)       639.0  Rx         0102  8  15 00 00 00 00 36 76 00 
  1280)       639.2  Rx         0103  8  14 00 00 00 00 36 76 00 
  1281)       640.0  Rx         0102  8  15 00 00 00 00 36 77 00 
  1282)       640.2  Rx         0103  8  14 00 00 00 01 36 77 00 
  1283)       641.0  Rx         0102  8  15 00 00 00 01 36 78 00 
  1284)       641.2  Rx         0103  8  14 00 00 00 01 36 78 00 
  1285)       642.0  Rx         0102  8  15 00 00 00 00 36 79 00 
  1286)       642.2  Rx         0103  8  14 00 00 00 01 36 79 00 
  1287)       643.0  Rx         0102  8  15 00 00 00 00 36 7A 00 
  1288)       643.2  Rx         0103  8  14 00 00 00 01 36 7A 00 
  1289)       644.0  Rx         0102  8  15 00 00 00 00 36 7B 00 
  1290)       644.2  Rx         0103  8  14 00 00 00 01 36 7B 00 
  1291)       645.0  Rx         0102  8  15 00 00 00 00 36 7C 00 
  1292)       645.3  Rx         0103  8  14 00 00 00 01 36 7C 00 
  1293)       646.0  Rx         0102  8  15 00 00 00 00 36 7D 00 
  1294)       646.2  Rx         0103  8  14 00 00 00 00 36 7D 00 
  1295)       647.0  Rx         0102  8  15 00 00 00 00 36 7E 00 
  1296)       647.3  Rx         0103  8  14 00 00 00 00 36 7E 00 
  1297)       648.0  Rx         0102  8  15 00 00 00 00 36 7F 00 
  1298)       648.2  Rx         0103  8  14 00 00 00 00 36 7F 00 
  1299)       649.0  Rx         0102  8  15 00 00 00 00 36 80 00 
  1300)       649.3  Rx         0103  8  14 00 00 00 00 36 80 00 
  1301)       650.0  Rx         0102  8  15 00 00 00 00 36 81 00 
  1302)       650.2  Rx         0103  8  14 00 00 00 00 36 81 00 
  1303)       651.0  Rx         0102  8  15 00 00 00 00 36 82 00 
  1304)       651.2  Rx         0103  8  14 00 00 00 00 36 82 00 
  1305)       652.0  Rx         0102  8  15 00 00 00 00 36 83 00 
  1306)       652.2  Rx         0103  8  14 00 00 00 00 36 83 00 
  1307)       653.0  Rx         0102  8  15 00 00 00 00 36 84 00 
  1308)       653.2  Rx         0103  8  14 00 00 00 00 36 84 00 
  1309)       654.0  Rx         0102  8  15 00 00 00 00 36 85 00 
  1310)       654.3  Rx         0103  8  14 00 00 00 00 36 85 00 
  1311)       655.0  Rx         0102  8  15 00 00 00 00 36 86 00 
  1312)       655.2  Rx         0103  8  14 00 00 00 00 36 86 00 
  1313)       656.0  Rx         0102  8  15 00 00 00 00 36 87 00 
  1314)       656.3  Rx         0103  8  14 00 00 00 00 36 87 00 
  1315)       657.0  Rx         0102  8  15 00 00 00 00 36 88 00 
  1316)       657.2  Rx         0103  8  14 00 00 00 01 36 88 00 
  1317)       658.0  Rx         0102  8  15 00 00 00 00 36 89 00 
  1318)       658.2  Rx         0103  8  14 00 00 00 01 36 89 00 
  1319)       659.0  Rx         0102  8  15 00 00 00 00 36 8A 00 
  1320)       659.2  Rx         0103  8  14 00 00 00 00 36 8A 00 
  1321)       660.0  Rx         0102  8  15 00 00 00 01 36 8B 00 
  1322)       660.2  Rx         0103  8  14 00 00 00 00 36 8B 00 
  1323)       661.0  Rx         0102  8  15 00 00 00 00 36 8C 00 
  1324)       661.3  Rx         0103  8  14 00 00 00 00 36 8C 00 
  1325)       662.0  Rx         0102  8  15 00 00 00 00 36 8D 00 
  1326)       662.2  Rx         0103  8  14 00 00 00 00 36 8D 00 
  1327)       663.0  Rx         0102  8  15 00 00 00 00 36 8E 00 
  1328)       663.3  Rx         0103  8  14 00 00 00 01 36 8E 00 
  1329)       664.0  Rx         0102  8  15 00 00 00 01 36 8F 00 
  1330)       664.2  Rx         0103  8  14 00 00 00 00 36 8F 00 
  1331)       665.0  Rx         0102  8  15 00 00 00 00 36 90 00 
  1332)       665.2  Rx         0103  8  14 00 00 00 00 36 90 00 
  1333)       666.0  Rx         0102  8  15 00 00 00 00 36 91 00 
  1334)       666.2  Rx         0103  8  14 00 00 00 00 36 91 00 
  1335)       667.0  Rx         0102  8  15 00 00 00 00 36 92 00 
  1336)       667.2  Rx         0103  8  14 00 00 00 01 36 92 00 
  1337)       668.0  Rx         0102  8  15 00 00 00 00 36 93 00 
  1338)       668.2  Rx         0103  8  14 00 00 00 01 36 93 00 
  1339)       669.0  Rx         0102  8  15 00 00 00 00 36 94 00 
  1340)       669.2  Rx         0103  8  14 00 00 00 01 36 94 00 
  1341)       670.0  Rx         0102  8  15 00 00 00 00 36 95 00 
  1342)       670.3  Rx         0103  8  14 00 00 00 01 36 95 00 
  1343)       671.0  Rx         0102  8  15 00 00 00 00 36 96 00 
  1344)       671.2  Rx         0103  8  14 00 00 00 00 36 96 00 
  1345)       672.0  Rx         0102  8  15 00 00 00 00 36 97 00 
  1346)       672.2  Rx         0103  8  14 00 00 00 00 36 97 00 
  1347)       673.0  Rx         0102  8  15 00 00 00 01 36 98 00 
  1348)       673.2  Rx         0103  8  14 00 00 00 00 36 98 00 
  1349)       674.0  Rx         0102  8  15 00 00 00 01 36 99 00 
  1350)       674.2  Rx         0103  8  14 00 00 00 00 36 99 00 
  1351)       675.0  Rx         0102  8  15 00 00 00 01 36 9A 00 
  1352)       675.2  Rx         0103  8  14 00 00 00 00 36 9A 00 
  1353)       676.0  Rx         0102  8  15 00 00 00 01 36 9B 00 
  1354)       676.2  Rx         0103  8  14 00 00 00 00 36 9B 00 
  1355)       677.0  Rx         0102  8  15 00 00 00 01 36 9C 00 
  1356)       677.2  Rx         0103  8  14 00 00 00 00 36 9C 00 
  1357)       678.0  Rx         0102  8  15 00 00 00 01 36 9D 00 
  1358)       678.2  Rx         0103  8  14 00 00 00 00 36 9D 00 
  1359)       679.0  Rx         0102  8  15 00 00 00 01 36 9E 00 
  1360)       679.3  Rx         0103  8  14 00 00 00 00 36 9E 00 
  1361)       680.0  Rx         0102  8  15 00 00 00 00 36 9F 00 
  1362)       680.2  Rx         0103  8  14 00 00 00 01 36 9F 00 
  1363)       681.0  Rx         0102  8  15 00 00 00 00 36 A0 00 
  1364)       681.2  Rx         0103  8  14 00 00 00 00 36 A0 00 
  1365)       682.0  Rx         0102  8  15 00 00 00 00 36 A1 00 
  1366)       682.2  Rx         0103  8  14 00 00 00 01 36 A1 00 
  1367)       683.0  Rx         0102  8  15 00 00 00 00 36 A2 00 
  1368)       683.2  Rx         0103  8  14 00 00 00 01 36 A2 00 
  1369)       684.0  Rx         0102  8  15 00 00 00 00 36 A3 00 
  1370)       684.2  Rx         0103  8  14 00 00 00 01 36 A3 00 
  1371)       685.0  Rx         0102  8  15 00 00 00 00 36 A4 00 
  1372)       685.2  Rx         0103  8  14 00 00 00 01 36 A4 00 
  1373)       686.0  Rx         0102  8  15 00 00 00 00 36 A5 00 
  1374)       686.3  Rx         0103  8  14 00 00 00 01 36 A5 00 
  1375)       687.0  Rx         0102  8  15 00 00 00 00 36 A6 00 
  1376)       687.2  Rx         0103  8  14 00 00 00 01 36 A6 00 
  1377)       688.0  Rx         0102  8  15 00 00 00 00 36 A7 00 
  1378)       688.2  Rx         0103  8  14 00 00 00 01 36 A7 00 
  1379)       689.0  Rx         0102  8  15 00 00 00 00 36 A8 00 
  1380)       689.2  Rx         0103  8  14 00 00 00 01 36 A8 00 
  1381)       690.0  Rx         0102  8  15 00 00 00 00 36 A9 00 
  1382)       690.2  Rx         0103  8  14 00 00 00 01 36 A9 00 
  1383)       691.0  Rx         0102  8  15 00 00 00 00 36 AA 00 
  1384)       691.2  Rx         0103  8  14 00 00 00 01 36 AA 00 
  1385)       692.0  Rx         0102  8  15 00 00 00 00 36 AB 00 
  1386)       692.2  Rx         0103  8  14 00 00 00 01 36 AB 00 
  1387)       693.0  Rx         0102  8  15 00 00 00 00 36 AC 00 
  1388)       693.2  Rx         0103  8  14 00 00 00 00 36 AC 00 
  1389)       694.0  Rx         0102  8  15 00 00 00 00 36 AD 00 
  1390)       694.2  Rx         0103  8  14 00 00 00 01 36 AD 00 
  1391)       695.0  Rx         0102  8  15 00 00 00 00 36 AE 00 
  1392)       695.3  Rx         0103  8  14 00 00 00 01 36 AE 00 
  1393)       696.0  Rx         0102  8  15 00 00 00 00 36 AF 00 
  1394)       696.2  Rx         0103  8  14 00 00 00 00 36 AF 00 
  1395)       697.0  Rx         0102  8  15 00 00 00 00 36 B0 00 
  1396)       697.2  Rx         0103  8  14 00 00 00 00 36 B0 00 
  1397)       698.0  Rx         0102  8  15 00 00 00 00 36 B1 00 
  1398)       698.2  Rx         0103  8  14 00 00 00 00 36 B1 00 
  1399)       699.0  Rx         0102  8  15 00 00 00 00 36 B2 00 
  1400)       699.2  Rx         0103  8  14 00 00 00 00 36 B2 00 
  1401)       700.0  Rx         0102  8  15 00 00 00 00 36 B3 00 
  1402)       700.2  Rx         0103  8  14 00 00 00 00 36 B3 00 
  1403)       701.0  Rx         0102  8  15 00 00 00 00 36 B4 00 
  1404)       701.2  Rx         0103  8  14 00 00 00 00 36 B4 00 
  1405)       702.0  Rx         0102  8  15 00 00 00 00 36 B5 00 
  1406)       702.3  Rx         0103  8  14 00 00 00 00 36 B5 00 
  1407)       703.0  Rx         0102  8  15 00 00 00 00 36 B6 00 
  1408)       703.2  Rx         0103  8  14 00 00 00 00 36 B6 00 
  1409)       704.0  Rx         0102  8  15 00 00 00 00 36 B7 00 
  1410)       704.2  Rx         0103  8  14 00 00 00 00 36 B7 00 
  1411)       705.0  Rx         0102  8  15 00 00 00 00 36 B8 00 
  1412)       705.2  Rx         0103  8  14 00 00 00 00 36 B8 00 
  1413)       706.0  Rx         0102  8  15 00 00 00 00 36 B9 00 
  1414)       706.2  Rx         0103  8  14 00 00 00 00 36 B9 00 
  1415)       707.0  Rx         0102  8  15 00 00 00 00 36 BA 00 
  1416)       707.2  Rx         0103  8  14 00 00 00 00 36 BA 00 
  1417)       708.0  Rx         0102  8  15 00 00 00 00 36 BB 00 
  1418)       708.2  Rx         0103  8  14 00 00 00 01 36 BB 00 
  1419)       709.0  Rx         0102  8  15 00 00 00 00 36 BC 00 
  1420)       709.2  Rx         0103  8  14 00 00 00 00 36 BC 00 
  1421)       710.0  Rx         0102  8  15 00 00 00 00 36 BD 00 
  1422)       710.2  Rx         0103  8  14 00 00 00 00 36 BD 00 
  1423)       711.0  Rx         0102  8  15 00 00 00 00 36 BE 00 
  1424)       711.3  Rx         0103  8  14 00 00 00 00 36 BE 00 
  1425)       712.0  Rx         0102  8  15 00 00 00 00 36 BF 00 
  1426)       712.2  Rx         0103  8  14 00 00 00 01 36 BF 00 
  1427)       713.0  Rx         0102  8  15 00 00 00 00 36 C0 00 
  1428)       713.2  Rx         0103  8  14 00 00 00 01 36 C0 00 
  1429)       714.0  Rx         0102  8  15 00 00 00 00 36 C1 00 
  1430)       714.2  Rx         0103  8  14 00 00 00 00 36 C1 00 
  1431)       715.0  Rx         0102  8  15 00 00 00 00 36 C2 00 
  1432)       715.2  Rx         0103  8  14 00 00 00 00 36 C2 00 
  1433)       716.0  Rx         0102  8  15 00 00 00 00 36 C3 00 
  1434)       716.2  Rx         0103  8  14 00 00 00 00 36 C3 00 
  1435)       717.0  Rx         0102  8  15 00 00 00 00 36 C4 00 
  1436)       717.2  Rx         0103  8  14 00 00 00 00 36 C4 00 
  1437)       718.0  Rx         0102  8  15 00 00 00 00 36 C5 00 
  1438)       718.3  Rx         0103  8  14 00 00 00 00 36 C5 00 
  1439)       719.0  Rx         0102  8  15 00 00 00 00 36 C6 00 
  1440)       719.2  Rx         0103  8  14 00 00 00 00 36 C6 00 
  1441)       720.0  Rx         0102  8  15 00 00 00 00 36 C7 00 
  1442)       720.2  Rx         0103  8  14 00 00 00 00 36 C7 00 
  1443)       721.0  Rx         0102  8  15 00 00 00 00 36 C8 00 
  1444)       721.2  Rx         0103  8  14 00 00 00 00 36 C8 00 
  1445)       722.0  Rx         0102  8  15 00 00 00 01 36 C9 00 
  1446)       722.2  Rx         0103  8  14 00 00 00 00 36 C9 00 
  1447)       723.0  Rx         0102  8  15 00 00 00 01 36 CA 00 
  1448)       723.2  Rx         0103  8  14 00 00 00 00 36 CA 00 
  1449)       724.0  Rx         0102  8  15 00 00 00 01 36 CB 00 
  1450)       724.2  Rx         0103  8  14 00 00 00 00 36 CB 00 
  1451)       725.0  Rx         0102  8  15 00 00 00 01 36 CC 00 
  1452)       725.2  Rx         0103  8  14 00 00 00 00 36 CC 00 
  1453)       726.0  Rx         0102  8  15 00 00 00 00 36 CD 00 
  1454)       726.2  Rx         0103  8  14 00 00 00 00 36 CD 00 
  1455)       727.0  Rx         0102  8  15 00 00 00 00 36 CE 00 
  1456)       727.3  Rx         0103  8  14 00 00 00 00 36 CE 00 
  1457)       728.0  Rx         0102  8  15 00 00 00 00 36 CF 00 
  1458)       728.2  Rx         0103  8  14 00 00 00 00 36 CF 00 
  1459)       729.0  Rx         0102  8  15 00 00 00 00 36 D0 00 
  1460)       729.2  Rx         0103  8  14 00 00 00 00 36 D0 00 
  1461)       730.0  Rx         0102  8  15 00 00 00 00 36 D1 00 
  1462)       730.2  Rx         0103  8  14 00 00 00 01 36 D1 00 
  1463)       731.0  Rx         0102  8  15 00 00 00 00 36 D2 00 
  1464)       731.2  Rx         0103  8  14 00 00 00 00 36 D2 00 
  1465)       732.0  Rx         0102  8  15 00 00 00 00 36 D3 00 
  1466)       732.2  Rx         0103  8  14 00 00 00 00 36 D3 00 
  1467)       733.0  Rx         0102  8  15 00 00 00 00 36 D4 00 
  1468)       733.2  Rx         0103  8  14 00 00 00 00 36 D4 00 
  1469)       734.0  Rx         0102  8  15 00 00 00 00 36 D5 00 
  1470)       734.3  Rx         0103  8  14 00 00 00 00 36 D5 00 
  1471)       735.0  Rx         0102  8  15 00 00 00 00 36 D6 00 
  1472)       735.2  Rx         0103  8  14 00 00 00 00 36 D6 00 
  1473)       736.0  Rx         0102  8  15 00 00 00 00 36 D7 00 
  1474)       736.2  Rx         0103  8  14 00 00 00 01 36 D7 00 
  1475)       737.0  Rx         0102  8  15 00 00 00 00 36 D8 00 
  1476)       737.2  Rx         0103  8  14 00 00 00 01 36 D8 00 
  1477)       738.0  Rx         0102  8  15 00 00 00 00 36 D9 00 
  1478)       738.2  Rx         0103  8  14 00 00 00 01 36 D9 00 
  1479)       739.0  Rx         0102  8  15 00 00 00 00 36 DA 00 
  1480)       739.2  Rx         0103  8  14 00 00 00 01 36 DA 00 
  1481)       740.0  Rx         0102  8  15 00 00 00 00 36 DB 00 
  1482)       740.2  Rx         0103  8  14 00 00 00 00 36 DB 00 
  1483)       741.0  Rx         0102  8  15 00 00 00 00 36 DC 00 
  1484)       741.2  Rx         0103  8  14 00 00 00 01 36 DC 00 
  1485)       742.0  Rx         0102  8  15 00 00 00 00 36 DD 00 
