;$FILEVERSION=2.0
;$STARTTIME=44637.4918226157
;$COLUMNS=N,O,T,I,d,l,D
;
;   Start time: 17.03.2022 11:48:13.474.0
;   Generated by PCAN-View v4.3.0.596
;-------------------------------------------------------------------------------
;   Connection                 Bit rate
;   PCANLight_USB_16@pcan_usb  500 kBit/s
;-------------------------------------------------------------------------------
;   Message   Time    Type ID     Rx/Tx
;   Number    Offset  |    [hex]  |  Data Length
;   |         [ms]    |    |      |  |  Data [hex] ...
;   |         |       |    |      |  |  |
;---+-- ------+------ +- --+----- +- +- +- +- -- -- -- -- -- -- --
      1         0.481 DT     0102 Rx 8  15 00 05 00 00 D0 5E 00 
      2         0.728 DT     0103 Rx 8  14 00 05 00 00 D0 5E 00 
      3         1.486 DT     0102 Rx 8  15 00 05 00 00 D0 5F 00 
      4         1.730 DT     0103 Rx 8  14 00 05 00 00 D0 5F 00 
      5         2.486 DT     0102 Rx 8  15 00 05 00 00 D0 60 00 
      6         2.734 DT     0103 Rx 8  14 00 05 00 00 D0 60 00 
      7         3.487 DT     0102 Rx 8  15 00 05 00 00 D0 61 00 
      8         3.729 DT     0103 Rx 8  14 00 05 00 00 D0 61 00 
      9         4.487 DT     0102 Rx 8  15 00 05 00 00 D0 62 00 
     10         4.729 DT     0103 Rx 8  14 00 05 00 00 D0 62 00 
     11         5.481 DT     0102 Rx 8  15 00 05 00 00 D0 63 00 
     12         5.728 DT     0103 Rx 8  14 00 05 00 00 D0 63 00 
     13         6.484 DT     0102 Rx 8  15 00 05 00 00 D0 64 00 
     14         6.728 DT     0103 Rx 8  14 00 05 00 00 D0 64 00 
     15         7.486 DT     0102 Rx 8  15 00 05 00 00 D0 65 00 
     16         7.730 DT     0103 Rx 8  14 00 05 00 00 D0 65 00 
     17         8.485 DT     0102 Rx 8  15 00 05 00 00 D0 66 00 
     18         8.731 DT     0103 Rx 8  14 00 05 00 00 D0 66 00 
     19         9.489 DT     0102 Rx 8  15 00 05 00 00 D0 67 00 
     20         9.733 DT     0103 Rx 8  14 00 05 00 00 D0 67 00 
     21        10.485 DT     0102 Rx 8  15 00 05 00 00 D0 68 00 
     22        10.732 DT     0103 Rx 8  14 00 05 00 00 D0 68 00 
     23        11.484 DT     0102 Rx 8  15 00 05 00 00 D0 69 00 
     24        11.726 DT     0103 Rx 8  14 00 05 00 00 D0 69 00 
     25        12.484 DT     0102 Rx 8  15 00 05 00 00 D0 6A 00 
     26        12.728 DT     0103 Rx 8  14 00 05 00 00 D0 6A 00 
     27        13.483 DT     0102 Rx 8  15 00 05 00 00 D0 6B 00 
     28        13.729 DT     0103 Rx 8  14 00 05 00 00 D0 6B 00 
     29        14.487 DT     0102 Rx 8  15 00 05 00 00 D0 6C 00 
     30        14.733 DT     0103 Rx 8  14 00 05 00 00 D0 6C 00 
     31        15.483 DT     0102 Rx 8  15 00 05 00 00 D0 6D 00 
     32        15.730 DT     0103 Rx 8  14 00 05 00 00 D0 6D 00 
     33        16.484 DT     0102 Rx 8  15 00 05 00 00 D0 6E 00 
     34        16.726 DT     0103 Rx 8  14 00 05 00 00 D0 6E 00 
     35        17.490 DT     0102 Rx 8  15 00 05 00 00 D0 6F 00 
     36        17.732 DT     0103 Rx 8  14 00 05 00 00 D0 6F 00 
     37        18.485 DT     0102 Rx 8  15 00 05 00 00 D0 70 00 
     38        18.729 DT     0103 Rx 8  14 00 05 00 00 D0 70 00 
     39        19.483 DT     0102 Rx 8  15 00 05 00 00 D0 71 00 
     40        19.727 DT     0103 Rx 8  14 00 05 00 00 D0 71 00 
     41        20.483 DT     0102 Rx 8  15 00 05 00 00 D0 72 00 
     42        20.728 DT     0103 Rx 8  14 00 05 00 01 D0 72 00 
     43        21.482 DT     0102 Rx 8  15 00 05 00 00 D0 73 00 
     44        21.724 DT     0103 Rx 8  14 00 05 00 01 D0 73 00 
     45        22.484 DT     0102 Rx 8  15 00 05 00 00 D0 74 00 
     46        22.730 DT     0103 Rx 8  14 00 05 00 01 D0 74 00 
     47        23.485 DT     0102 Rx 8  15 00 05 00 00 D0 75 00 
     48        23.729 DT     0103 Rx 8  14 00 05 00 01 D0 75 00 
     49        24.483 DT     0102 Rx 8  15 00 05 00 00 D0 76 00 
     50        24.727 DT     0103 Rx 8  14 00 05 00 01 D0 76 00 
     51        25.481 DT     0102 Rx 8  15 00 05 00 00 D0 77 00 
     52        25.724 DT     0103 Rx 8  14 00 05 00 01 D0 77 00 
     53        26.486 DT     0102 Rx 8  15 00 05 00 00 D0 78 00 
     54        26.732 DT     0103 Rx 8  14 00 05 00 01 D0 78 00 
     55        27.488 DT     0102 Rx 8  15 00 05 00 00 D0 79 00 
     56        27.734 DT     0103 Rx 8  14 00 05 00 01 D0 79 00 
     57        28.485 DT     0102 Rx 8  15 00 05 00 00 D0 7A 00 
     58        28.733 DT     0103 Rx 8  14 00 05 00 01 D0 7A 00 
     59        29.487 DT     0102 Rx 8  15 00 05 00 00 D0 7B 00 
     60        29.733 DT     0103 Rx 8  14 00 05 00 00 D0 7B 00 
     61        30.485 DT     0102 Rx 8  15 00 05 00 00 D0 7C 00 
     62        30.734 DT     0103 Rx 8  14 00 05 00 00 D0 7C 00 
     63        31.486 DT     0102 Rx 8  15 00 05 00 00 D0 7D 00 
     64        31.730 DT     0103 Rx 8  14 00 05 00 00 D0 7D 00 
     65        32.488 DT     0102 Rx 8  15 00 05 00 00 D0 7E 00 
     66        32.732 DT     0103 Rx 8  14 00 05 00 00 D0 7E 00 
     67        33.485 DT     0102 Rx 8  15 00 05 00 00 D0 7F 00 
     68        33.731 DT     0103 Rx 8  14 00 05 00 00 D0 7F 00 
     69        34.485 DT     0102 Rx 8  15 00 05 00 00 D0 80 00 
     70        34.729 DT     0103 Rx 8  14 00 05 00 00 D0 80 00 
     71        35.483 DT     0102 Rx 8  15 00 05 00 00 D0 81 00 
     72        35.727 DT     0103 Rx 8  14 00 05 00 00 D0 81 00 
     73        36.482 DT     0102 Rx 8  15 00 05 00 00 D0 82 00 
     74        36.728 DT     0103 Rx 8  14 00 05 00 00 D0 82 00 
     75        37.488 DT     0102 Rx 8  15 00 05 00 00 D0 83 00 
     76        37.730 DT     0103 Rx 8  14 00 05 00 00 D0 83 00 
     77        38.482 DT     0102 Rx 8  15 00 05 00 00 D0 84 00 
     78        38.727 DT     0103 Rx 8  14 00 05 00 00 D0 84 00 
     79        39.483 DT     0102 Rx 8  15 00 05 00 00 D0 85 00 
     80        39.725 DT     0103 Rx 8  14 00 05 00 00 D0 85 00 
     81        40.483 DT     0102 Rx 8  15 00 05 00 00 D0 86 00 
     82        40.723 DT     0103 Rx 8  14 00 05 00 00 D0 86 00 
     83        41.480 DT     0102 Rx 8  15 00 05 00 00 D0 87 00 
     84        41.722 DT     0103 Rx 8  14 00 05 00 00 D0 87 00 
     85        42.482 DT     0102 Rx 8  15 00 05 00 00 D0 88 00 
     86        42.726 DT     0103 Rx 8  14 00 05 00 00 D0 88 00 
     87        43.480 DT     0102 Rx 8  15 00 05 00 00 D0 89 00 
     88        43.721 DT     0103 Rx 8  14 00 05 00 00 D0 89 00 
     89        44.483 DT     0102 Rx 8  15 00 05 00 00 D0 8A 00 
     90        44.725 DT     0103 Rx 8  14 00 05 00 00 D0 8A 00 
     91        45.479 DT     0102 Rx 8  15 00 05 00 00 D0 8B 00 
     92        45.719 DT     0103 Rx 8  14 00 05 00 00 D0 8B 00 
     93        46.482 DT     0102 Rx 8  15 00 05 00 00 D0 8C 00 
     94        46.728 DT     0103 Rx 8  14 00 05 00 01 D0 8C 00 
     95        47.484 DT     0102 Rx 8  15 00 05 00 00 D0 8D 00 
     96        47.724 DT     0103 Rx 8  14 00 05 00 01 D0 8D 00 
     97        48.482 DT     0102 Rx 8  15 00 05 00 00 D0 8E 00 
     98        48.725 DT     0103 Rx 8  14 00 05 00 00 D0 8E 00 
     99        49.481 DT     0102 Rx 8  15 00 05 00 00 D0 8F 00 
    100        49.723 DT     0103 Rx 8  14 00 05 00 01 D0 8F 00 
    101        50.481 DT     0102 Rx 8  15 00 05 00 00 D0 90 00 
    102        50.725 DT     0103 Rx 8  14 00 05 00 01 D0 90 00 
    103        51.482 DT     0102 Rx 8  15 00 05 00 00 D0 91 00 
    104        51.722 DT     0103 Rx 8  14 00 05 00 01 D0 91 00 
    105        52.482 DT     0102 Rx 8  15 00 05 00 00 D0 92 00 
    106        52.726 DT     0103 Rx 8  14 00 05 00 01 D0 92 00 
    107        53.480 DT     0102 Rx 8  15 00 05 00 00 D0 93 00 
    108        53.721 DT     0103 Rx 8  14 00 05 00 01 D0 93 00 
    109        54.483 DT     0102 Rx 8  15 00 05 00 00 D0 94 00 
    110        54.725 DT     0103 Rx 8  14 00 05 00 01 D0 94 00 
    111        55.479 DT     0102 Rx 8  15 00 05 00 00 D0 95 00 
    112        55.721 DT     0103 Rx 8  14 00 05 00 01 D0 95 00 
    113        56.486 DT     0102 Rx 8  15 00 05 00 00 D0 96 00 
    114        56.728 DT     0103 Rx 8  14 00 05 00 01 D0 96 00 
    115        57.484 DT     0102 Rx 8  15 00 05 00 00 D0 97 00 
    116        57.724 DT     0103 Rx 8  14 00 05 00 01 D0 97 00 
    117        58.482 DT     0102 Rx 8  15 00 05 00 00 D0 98 00 
    118        58.725 DT     0103 Rx 8  14 00 05 00 00 D0 98 00 
    119        59.485 DT     0102 Rx 8  15 00 05 00 00 D0 99 00 
    120        59.725 DT     0103 Rx 8  14 00 05 00 00 D0 99 00 
    121        60.481 DT     0102 Rx 8  15 00 05 00 00 D0 9A 00 
    122        60.721 DT     0103 Rx 8  14 00 05 00 00 D0 9A 00 
    123        61.480 DT     0102 Rx 8  15 00 05 00 00 D0 9B 00 
    124        61.722 DT     0103 Rx 8  14 00 05 00 00 D0 9B 00 
    125        62.482 DT     0102 Rx 8  15 00 05 00 00 D0 9C 00 
    126        62.724 DT     0103 Rx 8  14 00 05 00 00 D0 9C 00 
    127        63.480 DT     0102 Rx 8  15 00 05 00 00 D0 9D 00 
    128        63.723 DT     0103 Rx 8  14 00 05 00 00 D0 9D 00 
    129        64.483 DT     0102 Rx 8  15 00 05 00 00 D0 9E 00 
    130        64.725 DT     0103 Rx 8  14 00 05 00 00 D0 9E 00 
    131        65.483 DT     0102 Rx 8  15 00 05 00 00 D0 9F 00 
    132        65.727 DT     0103 Rx 8  14 00 05 00 00 D0 9F 00 
    133        66.484 DT     0102 Rx 8  15 00 05 00 00 D0 A0 00 
    134        66.728 DT     0103 Rx 8  14 00 05 00 00 D0 A0 00 
    135        67.486 DT     0102 Rx 8  15 00 05 00 00 D0 A1 00 
    136        67.726 DT     0103 Rx 8  14 00 05 00 01 D0 A1 00 
    137        68.484 DT     0102 Rx 8  15 00 05 00 00 D0 A2 00 
    138        68.725 DT     0103 Rx 8  14 00 05 00 01 D0 A2 00 
    139        69.483 DT     0102 Rx 8  15 00 05 00 00 D0 A3 00 
    140        69.723 DT     0103 Rx 8  14 00 05 00 01 D0 A3 00 
    141        70.481 DT     0102 Rx 8  15 00 05 00 00 D0 A4 00 
    142        70.723 DT     0103 Rx 8  14 00 05 00 01 D0 A4 00 
    143        71.480 DT     0102 Rx 8  15 00 05 00 00 D0 A5 00 
    144        71.720 DT     0103 Rx 8  14 00 05 00 01 D0 A5 00 
    145        72.480 DT     0102 Rx 8  15 00 05 00 00 D0 A6 00 
    146        72.722 DT     0103 Rx 8  14 00 05 00 01 D0 A6 00 
    147        73.482 DT     0102 Rx 8  15 00 05 00 00 D0 A7 00 
    148        73.723 DT     0103 Rx 8  14 00 05 00 01 D0 A7 00 
    149        74.483 DT     0102 Rx 8  15 00 05 00 00 D0 A8 00 
    150        74.727 DT     0103 Rx 8  14 00 05 00 01 D0 A8 00 
    151        75.481 DT     0102 Rx 8  15 00 05 00 00 D0 A9 00 
    152        75.723 DT     0103 Rx 8  14 00 05 00 01 D0 A9 00 
    153        76.482 DT     0102 Rx 8  15 00 05 00 00 D0 AA 00 
    154        76.726 DT     0103 Rx 8  14 00 05 00 01 D0 AA 00 
    155        77.488 DT     0102 Rx 8  15 00 05 00 00 D0 AB 00 
    156        77.728 DT     0103 Rx 8  14 00 05 00 01 D0 AB 00 
    157        78.484 DT     0102 Rx 8  15 00 05 00 00 D0 AC 00 
    158        78.727 DT     0103 Rx 8  14 00 05 00 01 D0 AC 00 
    159        79.483 DT     0102 Rx 8  15 00 05 00 00 D0 AD 00 
    160        79.723 DT     0103 Rx 8  14 00 05 00 01 D0 AD 00 
    161        80.481 DT     0102 Rx 8  15 00 05 00 00 D0 AE 00 
    162        80.723 DT     0103 Rx 8  14 00 05 00 01 D0 AE 00 
    163        81.480 DT     0102 Rx 8  15 00 05 00 00 D0 AF 00 
    164        81.722 DT     0103 Rx 8  14 00 05 00 01 D0 AF 00 
    165        82.484 DT     0102 Rx 8  15 00 05 00 00 D0 B0 00 
    166        82.728 DT     0103 Rx 8  14 00 05 00 01 D0 B0 00 
    167        83.482 DT     0102 Rx 8  15 00 05 00 00 D0 B1 00 
    168        83.723 DT     0103 Rx 8  14 00 05 00 01 D0 B1 00 
    169        84.483 DT     0102 Rx 8  15 00 05 00 00 D0 B2 00 
    170        84.723 DT     0103 Rx 8  14 00 05 00 01 D0 B2 00 
    171        85.479 DT     0102 Rx 8  15 00 05 00 00 D0 B3 00 
    172        85.721 DT     0103 Rx 8  14 00 05 00 01 D0 B3 00 
    173        86.484 DT     0102 Rx 8  15 00 05 00 00 D0 B4 00 
    174        86.726 DT     0103 Rx 8  14 00 05 00 01 D0 B4 00 
    175        87.484 DT     0102 Rx 8  15 00 05 00 00 D0 B5 00 
    176        87.726 DT     0103 Rx 8  14 00 05 00 01 D0 B5 00 
    177        88.480 DT     0102 Rx 8  15 00 05 00 00 D0 B6 00 
    178        88.724 DT     0103 Rx 8  14 00 05 00 01 D0 B6 00 
    179        89.483 DT     0102 Rx 8  15 00 05 00 00 D0 B7 00 
    180        89.723 DT     0103 Rx 8  14 00 05 00 01 D0 B7 00 
    181        90.481 DT     0102 Rx 8  15 00 05 00 00 D0 B8 00 
    182        90.723 DT     0103 Rx 8  14 00 05 00 01 D0 B8 00 
    183        91.481 DT     0102 Rx 8  15 00 05 00 00 D0 B9 00 
    184        91.724 DT     0103 Rx 8  14 00 05 00 01 D0 B9 00 
    185        92.480 DT     0102 Rx 8  15 00 05 00 00 D0 BA 00 
    186        92.722 DT     0103 Rx 8  14 00 05 00 01 D0 BA 00 
    187        93.480 DT     0102 Rx 8  15 00 05 00 00 D0 BB 00 
    188        93.720 DT     0103 Rx 8  14 00 05 00 01 D0 BB 00 
    189        94.483 DT     0102 Rx 8  15 00 05 00 00 D0 BC 00 
    190        94.725 DT     0103 Rx 8  14 00 05 00 01 D0 BC 00 
    191        95.479 DT     0102 Rx 8  15 00 05 00 00 D0 BD 00 
    192        95.721 DT     0103 Rx 8  14 00 05 00 01 D0 BD 00 
    193        96.483 DT     0102 Rx 8  15 00 05 00 00 D0 BE 00 
    194        96.730 DT     0103 Rx 8  14 00 05 00 01 D0 BE 00 
    195        97.488 DT     0102 Rx 8  15 00 05 00 00 D0 BF 00 
    196        97.730 DT     0103 Rx 8  14 00 05 00 00 D0 BF 00 
    197        98.484 DT     0102 Rx 8  15 00 05 00 00 D0 C0 00 
    198        98.726 DT     0103 Rx 8  14 00 05 00 00 D0 C0 00 
    199        99.483 DT     0102 Rx 8  15 00 05 00 00 D0 C1 00 
    200        99.727 DT     0103 Rx 8  14 00 05 00 01 D0 C1 00 
    201       100.479 DT     0102 Rx 8  15 00 05 00 00 D0 C2 00 
    202       100.723 DT     0103 Rx 8  14 00 05 00 01 D0 C2 00 
    203       101.481 DT     0102 Rx 8  15 00 05 00 00 D0 C3 00 
    204       101.722 DT     0103 Rx 8  14 00 05 00 01 D0 C3 00 
    205       102.482 DT     0102 Rx 8  15 00 05 00 00 D0 C4 00 
    206       102.726 DT     0103 Rx 8  14 00 05 00 00 D0 C4 00 
    207       103.482 DT     0102 Rx 8  15 00 05 00 00 D0 C5 00 
    208       103.724 DT     0103 Rx 8  14 00 05 00 01 D0 C5 00 
    209       104.485 DT     0102 Rx 8  15 00 05 00 00 D0 C6 00 
    210       104.725 DT     0103 Rx 8  14 00 05 00 01 D0 C6 00 
    211       105.479 DT     0102 Rx 8  15 00 05 00 00 D0 C7 00 
    212       105.723 DT     0103 Rx 8  14 00 05 00 01 D0 C7 00 
    213       106.483 DT     0102 Rx 8  15 00 05 00 00 D0 C8 00 
    214       106.726 DT     0103 Rx 8  14 00 05 00 01 D0 C8 00 
    215       107.484 DT     0102 Rx 8  15 00 05 00 00 D0 C9 00 
    216       107.726 DT     0103 Rx 8  14 00 05 00 01 D0 C9 00 
    217       108.482 DT     0102 Rx 8  15 00 05 00 00 D0 CA 00 
    218       108.720 DT     0103 Rx 8  14 00 05 00 02 D0 CA 00 
    219       109.481 DT     0102 Rx 8  15 00 05 00 00 D0 CB 00 
    220       109.721 DT     0103 Rx 8  14 00 05 00 01 D0 CB 00 
    221       110.483 DT     0102 Rx 8  15 00 05 00 00 D0 CC 00 
    222       110.725 DT     0103 Rx 8  14 00 05 00 02 D0 CC 00 
    223       111.479 DT     0102 Rx 8  15 00 05 00 00 D0 CD 00 
    224       111.720 DT     0103 Rx 8  14 00 05 00 01 D0 CD 00 
    225       112.482 DT     0102 Rx 8  15 00 05 00 00 D0 CE 00 
    226       112.726 DT     0103 Rx 8  14 00 05 00 01 D0 CE 00 
    227       113.480 DT     0102 Rx 8  15 00 05 00 00 D0 CF 00 
    228       113.722 DT     0103 Rx 8  14 00 05 00 01 D0 CF 00 
    229       114.485 DT     0102 Rx 8  15 00 05 00 00 D0 D0 00 
    230       114.727 DT     0103 Rx 8  14 00 05 00 00 D0 D0 00 
    231       115.479 DT     0102 Rx 8  15 00 05 00 00 D0 D1 00 
    232       115.719 DT     0103 Rx 8  14 00 05 00 00 D0 D1 00 
    233       116.481 DT     0102 Rx 8  15 00 05 00 00 D0 D2 00 
    234       116.728 DT     0103 Rx 8  14 00 05 00 00 D0 D2 00 
    235       117.484 DT     0102 Rx 8  15 00 05 00 00 D0 D3 00 
    236       117.724 DT     0103 Rx 8  14 00 05 00 00 D0 D3 00 
    237       118.482 DT     0102 Rx 8  15 00 05 00 00 D0 D4 00 
    238       118.724 DT     0103 Rx 8  14 00 05 00 00 D0 D4 00 
    239       119.481 DT     0102 Rx 8  15 00 05 00 00 D0 D5 00 
    240       119.721 DT     0103 Rx 8  14 00 05 00 00 D0 D5 00 
    241       120.481 DT     0102 Rx 8  15 00 05 00 00 D0 D6 00 
    242       120.723 DT     0103 Rx 8  14 00 05 00 00 D0 D6 00 
    243       121.479 DT     0102 Rx 8  15 00 05 00 00 D0 D7 00 
    244       121.720 DT     0103 Rx 8  14 00 05 00 00 D0 D7 00 
    245       122.484 DT     0102 Rx 8  15 00 05 00 00 D0 D8 00 
    246       122.726 DT     0103 Rx 8  14 00 05 00 00 D0 D8 00 
    247       123.482 DT     0102 Rx 8  15 00 05 00 00 D0 D9 00 
    248       123.722 DT     0103 Rx 8  14 00 05 00 00 D0 D9 00 
    249       124.483 DT     0102 Rx 8  15 00 05 00 00 D0 DA 00 
    250       124.725 DT     0103 Rx 8  14 00 05 00 00 D0 DA 00 
    251       125.481 DT     0102 Rx 8  15 00 05 00 00 D0 DB 00 
    252       125.723 DT     0103 Rx 8  14 00 05 00 00 D0 DB 00 
    253       126.481 DT     0102 Rx 8  15 00 05 00 00 D0 DC 00 
    254       126.724 DT     0103 Rx 8  14 00 05 00 00 D0 DC 00 
    255       127.484 DT     0102 Rx 8  15 00 05 00 00 D0 DD 00 
    256       127.726 DT     0103 Rx 8  14 00 05 00 00 D0 DD 00 
    257       128.480 DT     0102 Rx 8  15 00 05 00 00 D0 DE 00 
    258       128.722 DT     0103 Rx 8  14 00 05 00 00 D0 DE 00 
    259       129.487 DT     0102 Rx 8  15 00 05 00 00 D0 DF 00 
    260       129.729 DT     0103 Rx 8  14 00 05 00 00 D0 DF 00 
    261       130.481 DT     0102 Rx 8  15 00 05 00 00 D0 E0 00 
    262       130.727 DT     0103 Rx 8  14 00 05 00 00 D0 E0 00 
    263       131.481 DT     0102 Rx 8  15 00 05 00 00 D0 E1 00 
    264       131.722 DT     0103 Rx 8  14 00 05 00 00 D0 E1 00 
    265       132.484 DT     0102 Rx 8  15 00 05 00 00 D0 E2 00 
    266       132.724 DT     0103 Rx 8  14 00 05 00 00 D0 E2 00 
    267       133.480 DT     0102 Rx 8  15 00 05 00 00 D0 E3 00 
    268       133.724 DT     0103 Rx 8  14 00 05 00 00 D0 E3 00 
    269       134.483 DT     0102 Rx 8  15 00 05 00 00 D0 E4 00 
    270       134.725 DT     0103 Rx 8  14 00 05 00 00 D0 E4 00 
    271       135.481 DT     0102 Rx 8  15 00 05 00 00 D0 E5 00 
    272       135.721 DT     0103 Rx 8  14 00 05 00 00 D0 E5 00 
    273       136.481 DT     0102 Rx 8  15 00 05 00 00 D0 E6 00 
    274       136.726 DT     0103 Rx 8  14 00 05 00 00 D0 E6 00 
    275       137.486 DT     0102 Rx 8  15 00 05 00 00 D0 E7 00 
    276       137.730 DT     0103 Rx 8  14 00 05 00 00 D0 E7 00 
    277       138.482 DT     0102 Rx 8  15 00 05 00 00 D0 E8 00 
    278       138.726 DT     0103 Rx 8  14 00 05 00 01 D0 E8 00 
    279       139.483 DT     0102 Rx 8  15 00 05 00 00 D0 E9 00 
    280       139.727 DT     0103 Rx 8  14 00 05 00 01 D0 E9 00 
    281       140.483 DT     0102 Rx 8  15 00 05 00 00 D0 EA 00 
    282       140.725 DT     0103 Rx 8  14 00 05 00 01 D0 EA 00 
    283       141.481 DT     0102 Rx 8  15 00 05 00 00 D0 EB 00 
    284       141.722 DT     0103 Rx 8  14 00 05 00 01 D0 EB 00 
    285       142.484 DT     0102 Rx 8  15 00 05 00 00 D0 EC 00 
    286       142.726 DT     0103 Rx 8  14 00 05 00 01 D0 EC 00 
    287       143.486 DT     0102 Rx 8  15 00 05 00 00 D0 ED 00 
    288       143.726 DT     0103 Rx 8  14 00 05 00 01 D0 ED 00 
    289       144.484 DT     0102 Rx 8  15 00 05 00 00 D0 EE 00 
    290       144.727 DT     0103 Rx 8  14 00 05 00 01 D0 EE 00 
    291       145.479 DT     0102 Rx 8  15 00 05 00 00 D0 EF 00 
    292       145.721 DT     0103 Rx 8  14 00 05 00 01 D0 EF 00 
    293       146.481 DT     0102 Rx 8  15 00 05 00 00 D0 F0 00 
    294       146.725 DT     0103 Rx 8  14 00 05 00 01 D0 F0 00 
    295       147.486 DT     0102 Rx 8  15 00 05 00 00 D0 F1 00 
    296       147.726 DT     0103 Rx 8  14 00 05 00 01 D0 F1 00 
    297       148.484 DT     0102 Rx 8  15 00 05 00 00 D0 F2 00 
    298       148.724 DT     0103 Rx 8  14 00 05 00 01 D0 F2 00 
    299       149.482 DT     0102 Rx 8  15 00 05 00 00 D0 F3 00 
    300       149.725 DT     0103 Rx 8  14 00 05 00 01 D0 F3 00 
    301       150.485 DT     0102 Rx 8  15 00 05 00 00 D0 F4 00 
    302       150.729 DT     0103 Rx 8  14 00 05 00 01 D0 F4 00 
    303       151.479 DT     0102 Rx 8  15 00 05 00 00 D0 F5 00 
    304       151.721 DT     0103 Rx 8  14 00 05 00 01 D0 F5 00 
    305       152.480 DT     0102 Rx 8  15 00 05 00 00 D0 F6 00 
    306       152.722 DT     0103 Rx 8  14 00 05 00 01 D0 F6 00 
    307       153.482 DT     0102 Rx 8  15 00 05 00 00 D0 F7 00 
    308       153.722 DT     0103 Rx 8  14 00 05 00 01 D0 F7 00 
    309       154.484 DT     0102 Rx 8  15 00 05 00 00 D0 F8 00 
    310       154.729 DT     0103 Rx 8  14 00 05 00 00 D0 F8 00 
    311       155.483 DT     0102 Rx 8  15 00 05 00 00 D0 F9 00 
    312       155.727 DT     0103 Rx 8  14 00 05 00 00 D0 F9 00 
    313       156.481 DT     0102 Rx 8  15 00 05 00 00 D0 FA 00 
    314       156.725 DT     0103 Rx 8  14 00 05 00 00 D0 FA 00 
    315       157.488 DT     0102 Rx 8  15 00 05 00 00 D0 FB 00 
    316       157.730 DT     0103 Rx 8  14 00 05 00 00 D0 FB 00 
    317       158.488 DT     0102 Rx 8  15 00 05 00 00 D0 FC 00 
    318       158.732 DT     0103 Rx 8  14 00 05 00 00 D0 FC 00 
    319       159.484 DT     0102 Rx 8  15 00 05 00 00 D0 FD 00 
    320       159.727 DT     0103 Rx 8  14 00 05 00 00 D0 FD 00 
    321       160.483 DT     0102 Rx 8  15 00 05 00 00 D0 FE 00 
    322       160.727 DT     0103 Rx 8  14 00 05 00 00 D0 FE 00 
    323       161.481 DT     0102 Rx 8  15 00 05 00 00 D0 FF 00 
    324       161.725 DT     0103 Rx 8  14 00 05 00 00 D0 FF 00 
    325       162.486 DT     0102 Rx 8  15 00 05 00 00 D1 00 00 
    326       162.730 DT     0103 Rx 8  14 00 05 00 00 D1 00 00 
    327       163.484 DT     0102 Rx 8  15 00 05 00 00 D1 01 00 
    328       163.726 DT     0103 Rx 8  14 00 05 00 00 D1 01 00 
    329       164.484 DT     0102 Rx 8  15 00 05 00 00 D1 02 00 
    330       164.729 DT     0103 Rx 8  14 00 05 00 00 D1 02 00 
    331       165.481 DT     0102 Rx 8  15 00 05 00 00 D1 03 00 
    332       165.725 DT     0103 Rx 8  14 00 05 00 00 D1 03 00 
    333       166.483 DT     0102 Rx 8  15 00 05 00 00 D1 04 00 
    334       166.727 DT     0103 Rx 8  14 00 05 00 00 D1 04 00 
    335       167.486 DT     0102 Rx 8  15 00 05 00 00 D1 05 00 
    336       167.732 DT     0103 Rx 8  14 00 05 00 00 D1 05 00 
    337       168.484 DT     0102 Rx 8  15 00 05 00 00 D1 06 00 
    338       168.728 DT     0103 Rx 8  14 00 05 00 00 D1 06 00 
    339       169.486 DT     0102 Rx 8  15 00 05 00 00 D1 07 00 
    340       169.729 DT     0103 Rx 8  14 00 05 00 01 D1 07 00 
    341       170.483 DT     0102 Rx 8  15 00 05 00 00 D1 08 00 
    342       170.727 DT     0103 Rx 8  14 00 05 00 01 D1 08 00 
    343       171.479 DT     0102 Rx 8  15 00 05 00 00 D1 09 00 
    344       171.721 DT     0103 Rx 8  14 00 05 00 01 D1 09 00 
    345       172.480 DT     0102 Rx 8  15 00 05 00 00 D1 0A 00 
    346       172.724 DT     0103 Rx 8  14 00 05 00 01 D1 0A 00 
    347       173.480 DT     0102 Rx 8  15 00 05 00 00 D1 0B 00 
    348       173.722 DT     0103 Rx 8  14 00 05 00 01 D1 0B 00 
    349       174.482 DT     0102 Rx 8  15 00 05 00 00 D1 0C 00 
    350       174.727 DT     0103 Rx 8  14 00 05 00 01 D1 0C 00 
    351       175.479 DT     0102 Rx 8  15 00 05 00 00 D1 0D 00 
    352       175.719 DT     0103 Rx 8  14 00 05 00 01 D1 0D 00 
    353       176.481 DT     0102 Rx 8  15 00 05 00 00 D1 0E 00 
    354       176.721 DT     0103 Rx 8  14 00 05 00 01 D1 0E 00 
    355       177.488 DT     0102 Rx 8  15 00 05 00 00 D1 0F 00 
    356       177.730 DT     0103 Rx 8  14 00 05 00 01 D1 0F 00 
    357       178.482 DT     0102 Rx 8  15 00 05 00 00 D1 10 00 
    358       178.724 DT     0103 Rx 8  14 00 05 00 00 D1 10 00 
    359       179.482 DT     0102 Rx 8  15 00 05 00 00 D1 11 00 
    360       179.725 DT     0103 Rx 8  14 00 05 00 00 D1 11 00 
    361       180.481 DT     0102 Rx 8  15 00 05 00 00 D1 12 00 
    362       180.721 DT     0103 Rx 8  14 00 05 00 00 D1 12 00 
    363       181.479 DT     0102 Rx 8  15 00 05 00 00 D1 13 00 
    364       181.721 DT     0103 Rx 8  14 00 05 00 00 D1 13 00 
    365       182.482 DT     0102 Rx 8  15 00 05 00 00 D1 14 00 
    366       182.726 DT     0103 Rx 8  14 00 05 00 00 D1 14 00 
    367       183.482 DT     0102 Rx 8  15 00 05 00 00 D1 15 00 
    368       183.722 DT     0103 Rx 8  14 00 05 00 00 D1 15 00 
    369       184.482 DT     0102 Rx 8  15 00 05 00 00 D1 16 00 
    370       184.725 DT     0103 Rx 8  14 00 05 00 00 D1 16 00 
    371       185.479 DT     0102 Rx 8  15 00 05 00 00 D1 17 00 
    372       185.719 DT     0103 Rx 8  14 00 05 00 00 D1 17 00 
    373       186.481 DT     0102 Rx 8  15 00 05 00 00 D1 18 00 
    374       186.725 DT     0103 Rx 8  14 00 05 00 00 D1 18 00 
    375       187.486 DT     0102 Rx 8  15 00 05 00 00 D1 19 00 
    376       187.728 DT     0103 Rx 8  14 00 05 00 01 D1 19 00 
    377       188.480 DT     0102 Rx 8  15 00 05 00 00 D1 1A 00 
    378       188.722 DT     0103 Rx 8  14 00 05 00 00 D1 1A 00 
    379       189.482 DT     0102 Rx 8  15 00 05 00 00 D1 1B 00 
    380       189.725 DT     0103 Rx 8  14 00 05 00 00 D1 1B 00 
    381       190.481 DT     0102 Rx 8  15 00 05 00 00 D1 1C 00 
    382       190.725 DT     0103 Rx 8  14 00 05 00 00 D1 1C 00 
    383       191.481 DT     0102 Rx 8  15 00 05 00 00 D1 1D 00 
    384       191.721 DT     0103 Rx 8  14 00 05 00 00 D1 1D 00 
    385       192.484 DT     0102 Rx 8  15 00 05 00 00 D1 1E 00 
    386       192.724 DT     0103 Rx 8  14 00 05 00 01 D1 1E 00 
    387       193.482 DT     0102 Rx 8  15 00 05 00 00 D1 1F 00 
    388       193.726 DT     0103 Rx 8  14 00 05 00 01 D1 1F 00 
    389       194.484 DT     0102 Rx 8  15 00 05 00 00 D1 20 00 
    390       194.729 DT     0103 Rx 8  14 00 05 00 00 D1 20 00 
    391       195.481 DT     0102 Rx 8  15 00 05 00 00 D1 21 00 
    392       195.725 DT     0103 Rx 8  14 00 05 00 00 D1 21 00 
    393       196.479 DT     0102 Rx 8  15 00 05 00 00 D1 22 00 
    394       196.721 DT     0103 Rx 8  14 00 05 00 00 D1 22 00 
    395       197.483 DT     0102 Rx 8  15 00 05 00 00 D1 23 00 
    396       197.724 DT     0103 Rx 8  14 00 05 00 00 D1 23 00 
    397       198.484 DT     0102 Rx 8  15 00 05 00 00 D1 24 00 
    398       198.726 DT     0103 Rx 8  14 00 05 00 00 D1 24 00 
    399       199.480 DT     0102 Rx 8  15 00 05 00 00 D1 25 00 
    400       199.724 DT     0103 Rx 8  14 00 05 00 00 D1 25 00 
    401       200.481 DT     0102 Rx 8  15 00 05 00 00 D1 26 00 
    402       200.725 DT     0103 Rx 8  14 00 05 00 00 D1 26 00 
    403       201.481 DT     0102 Rx 8  15 00 05 00 00 D1 27 00 
    404       201.721 DT     0103 Rx 8  14 00 05 00 00 D1 27 00 
    405       202.481 DT     0102 Rx 8  15 00 05 00 00 D1 28 00 
    406       202.724 DT     0103 Rx 8  14 00 05 00 00 D1 28 00 
    407       203.482 DT     0102 Rx 8  15 00 05 00 00 D1 29 00 
    408       203.722 DT     0103 Rx 8  14 00 05 00 00 D1 29 00 
    409       204.484 DT     0102 Rx 8  15 00 05 00 00 D1 2A 00 
    410       204.726 DT     0103 Rx 8  14 00 05 00 00 D1 2A 00 
    411       205.481 DT     0102 Rx 8  15 00 05 00 00 D1 2B 00 
    412       205.725 DT     0103 Rx 8  14 00 05 00 00 D1 2B 00 
    413       206.483 DT     0102 Rx 8  15 00 05 00 00 D1 2C 00 
    414       206.725 DT     0103 Rx 8  14 00 05 00 00 D1 2C 00 
    415       207.483 DT     0102 Rx 8  15 00 05 00 00 D1 2D 00 
    416       207.728 DT     0103 Rx 8  14 00 05 00 00 D1 2D 00 
    417       208.480 DT     0102 Rx 8  15 00 05 00 00 D1 2E 00 
    418       208.724 DT     0103 Rx 8  14 00 05 00 00 D1 2E 00 
    419       209.484 DT     0102 Rx 8  15 00 05 00 00 D1 2F 00 
    420       209.724 DT     0103 Rx 8  14 00 05 00 00 D1 2F 00 
    421       210.483 DT     0102 Rx 8  15 00 05 00 00 D1 30 00 
    422       210.727 DT     0103 Rx 8  14 00 05 00 00 D1 30 00 
    423       211.479 DT     0102 Rx 8  15 00 05 00 00 D1 31 00 
    424       211.721 DT     0103 Rx 8  14 00 05 00 00 D1 31 00 
    425       212.481 DT     0102 Rx 8  15 00 05 00 00 D1 32 00 
    426       212.724 DT     0103 Rx 8  14 00 05 00 00 D1 32 00 
    427       213.484 DT     0102 Rx 8  15 00 05 00 00 D1 33 00 
    428       213.724 DT     0103 Rx 8  14 00 05 00 00 D1 33 00 
    429       214.482 DT     0102 Rx 8  15 00 05 00 00 D1 34 00 
    430       214.724 DT     0103 Rx 8  14 00 05 00 00 D1 34 00 
    431       215.481 DT     0102 Rx 8  15 00 05 00 00 D1 35 00 
    432       215.723 DT     0103 Rx 8  14 00 05 00 00 D1 35 00 
    433       216.481 DT     0102 Rx 8  15 00 05 00 00 D1 36 00 
    434       216.721 DT     0103 Rx 8  14 00 05 00 00 D1 36 00 
    435       217.483 DT     0102 Rx 8  15 00 05 00 00 D1 37 00 
    436       217.726 DT     0103 Rx 8  14 00 05 00 00 D1 37 00 
    437       218.484 DT     0102 Rx 8  15 00 05 00 00 D1 38 00 
    438       218.728 DT     0103 Rx 8  14 00 05 00 00 D1 38 00 
    439       219.480 DT     0102 Rx 8  15 00 05 00 00 D1 39 00 
    440       219.720 DT     0103 Rx 8  14 00 05 00 00 D1 39 00 
    441       220.485 DT     0102 Rx 8  15 00 05 00 00 D1 3A 00 
    442       220.725 DT     0103 Rx 8  14 00 05 00 00 D1 3A 00 
    443       221.479 DT     0102 Rx 8  15 00 05 00 00 D1 3B 00 
    444       221.719 DT     0103 Rx 8  14 00 05 00 00 D1 3B 00 
    445       222.481 DT     0102 Rx 8  15 00 05 00 00 D1 3C 00 
    446       222.724 DT     0103 Rx 8  14 00 05 00 01 D1 3C 00 
    447       223.480 DT     0102 Rx 8  15 00 05 00 00 D1 3D 00 
    448       223.720 DT     0103 Rx 8  14 00 05 00 01 D1 3D 00 
    449       224.484 DT     0102 Rx 8  15 00 05 00 00 D1 3E 00 
    450       224.728 DT     0103 Rx 8  14 00 05 00 01 D1 3E 00 
    451       225.481 DT     0102 Rx 8  15 00 05 00 00 D1 3F 00 
    452       225.723 DT     0103 Rx 8  14 00 05 00 01 D1 3F 00 
    453       226.483 DT     0102 Rx 8  15 00 05 00 00 D1 40 00 
    454       226.727 DT     0103 Rx 8  14 00 05 00 01 D1 40 00 
    455       227.487 DT     0102 Rx 8  15 00 05 00 00 D1 41 00 
    456       227.734 DT     0103 Rx 8  14 00 05 00 01 D1 41 00 
    457       228.482 DT     0102 Rx 8  15 00 05 00 00 D1 42 00 
    458       228.726 DT     0103 Rx 8  14 00 05 00 01 D1 42 00 
    459       229.480 DT     0102 Rx 8  15 00 05 00 00 D1 43 00 
    460       229.722 DT     0103 Rx 8  14 00 05 00 01 D1 43 00 
    461       230.481 DT     0102 Rx 8  15 00 05 00 00 D1 44 00 
    462       230.725 DT     0103 Rx 8  14 00 05 00 01 D1 44 00 
    463       231.479 DT     0102 Rx 8  15 00 05 00 00 D1 45 00 
    464       231.725 DT     0103 Rx 8  14 00 05 00 01 D1 45 00 
    465       232.479 DT     0102 Rx 8  15 00 05 00 00 D1 46 00 
    466       232.722 DT     0103 Rx 8  14 00 05 00 01 D1 46 00 
    467       233.482 DT     0102 Rx 8  15 00 05 00 00 D1 47 00 
    468       233.722 DT     0103 Rx 8  14 00 05 00 01 D1 47 00 
    469       234.484 DT     0102 Rx 8  15 00 05 00 00 D1 48 00 
    470       234.726 DT     0103 Rx 8  14 00 05 00 01 D1 48 00 
    471       235.479 DT     0102 Rx 8  15 00 05 00 00 D1 49 00 
    472       235.721 DT     0103 Rx 8  14 00 05 00 01 D1 49 00 
    473       236.479 DT     0102 Rx 8  15 00 05 00 00 D1 4A 00 
    474       236.723 DT     0103 Rx 8  14 00 05 00 00 D1 4A 00 
    475       237.485 DT     0102 Rx 8  15 00 05 00 00 D1 4B 00 
    476       237.726 DT     0103 Rx 8  14 00 05 00 00 D1 4B 00 
    477       238.482 DT     0102 Rx 8  15 00 05 00 00 D1 4C 00 
    478       238.724 DT     0103 Rx 8  14 00 05 00 00 D1 4C 00 
    479       239.480 DT     0102 Rx 8  15 00 05 00 00 D1 4D 00 
    480       239.720 DT     0103 Rx 8  14 00 05 00 00 D1 4D 00 
    481       240.481 DT     0102 Rx 8  15 00 05 00 00 D1 4E 00 
    482       240.721 DT     0103 Rx 8  14 00 05 00 00 D1 4E 00 
    483       241.479 DT     0102 Rx 8  15 00 05 00 00 D1 4F 00 
    484       241.719 DT     0103 Rx 8  14 00 05 00 00 D1 4F 00 
    485       242.481 DT     0102 Rx 8  15 00 05 00 00 D1 50 00 
    486       242.724 DT     0103 Rx 8  14 00 05 00 00 D1 50 00 
    487       243.480 DT     0102 Rx 8  15 00 05 00 00 D1 51 00 
    488       243.720 DT     0103 Rx 8  14 00 05 00 00 D1 51 00 
    489       244.482 DT     0102 Rx 8  15 00 05 00 00 D1 52 00 
    490       244.722 DT     0103 Rx 8  14 00 05 00 00 D1 52 00 
    491       245.479 DT     0102 Rx 8  15 00 05 00 00 D1 53 00 
    492       245.719 DT     0103 Rx 8  14 00 05 00 00 D1 53 00 
    493       246.481 DT     0102 Rx 8  15 00 05 00 00 D1 54 00 
    494       246.725 DT     0103 Rx 8  14 00 05 00 00 D1 54 00 
    495       247.483 DT     0102 Rx 8  15 00 05 00 00 D1 55 00 
    496       247.726 DT     0103 Rx 8  14 00 05 00 00 D1 55 00 
    497       248.480 DT     0102 Rx 8  15 00 05 00 00 D1 56 00 
    498       248.722 DT     0103 Rx 8  14 00 05 00 01 D1 56 00 
    499       249.480 DT     0102 Rx 8  15 00 05 00 00 D1 57 00 
    500       249.720 DT     0103 Rx 8  14 00 05 00 00 D1 57 00 
    501       250.483 DT     0102 Rx 8  15 00 05 00 00 D1 58 00 
    502       250.725 DT     0103 Rx 8  14 00 05 00 00 D1 58 00 
    503       251.479 DT     0102 Rx 8  15 00 05 00 00 D1 59 00 
    504       251.721 DT     0103 Rx 8  14 00 05 00 00 D1 59 00 
    505       252.479 DT     0102 Rx 8  15 00 05 00 00 D1 5A 00 
    506       252.721 DT     0103 Rx 8  14 00 05 00 00 D1 5A 00 
    507       253.482 DT     0102 Rx 8  15 00 05 00 00 D1 5B 00 
    508       253.722 DT     0103 Rx 8  14 00 05 00 01 D1 5B 00 
    509       254.482 DT     0102 Rx 8  15 00 05 00 00 D1 5C 00 
    510       254.726 DT     0103 Rx 8  14 00 05 00 01 D1 5C 00 
    511       255.480 DT     0102 Rx 8  15 00 05 00 00 D1 5D 00 
    512       255.721 DT     0103 Rx 8  14 00 05 00 01 D1 5D 00 
    513       256.481 DT     0102 Rx 8  15 00 05 00 00 D1 5E 00 
    514       256.721 DT     0103 Rx 8  14 00 05 00 01 D1 5E 00 
    515       257.485 DT     0102 Rx 8  15 00 05 00 00 D1 5F 00 
    516       257.729 DT     0103 Rx 8  14 00 05 00 01 D1 5F 00 
    517       258.482 DT     0102 Rx 8  15 00 05 00 00 D1 60 00 
    518       258.724 DT     0103 Rx 8  14 00 05 00 01 D1 60 00 
    519       259.482 DT     0102 Rx 8  15 00 05 00 00 D1 61 00 
    520       259.724 DT     0103 Rx 8  14 00 05 00 01 D1 61 00 
    521       260.478 DT     0102 Rx 8  15 00 05 00 00 D1 62 00 
    522       260.721 DT     0103 Rx 8  14 00 05 00 00 D1 62 00 
    523       261.479 DT     0102 Rx 8  15 00 05 00 00 D1 63 00 
    524       261.719 DT     0103 Rx 8  14 00 05 00 00 D1 63 00 
    525       262.485 DT     0102 Rx 8  15 00 05 00 00 D1 64 00 
    526       262.727 DT     0103 Rx 8  14 00 05 00 00 D1 64 00 
    527       263.480 DT     0102 Rx 8  15 00 05 00 00 D1 65 00 
    528       263.722 DT     0103 Rx 8  14 00 05 00 00 D1 65 00 
    529       264.484 DT     0102 Rx 8  15 00 05 00 00 D1 66 00 
    530       264.726 DT     0103 Rx 8  14 00 05 00 00 D1 66 00 
    531       265.480 DT     0102 Rx 8  15 00 05 00 00 D1 67 00 
    532       265.725 DT     0103 Rx 8  14 00 05 00 00 D1 67 00 
    533       266.481 DT     0102 Rx 8  15 00 05 00 00 D1 68 00 
    534       266.727 DT     0103 Rx 8  14 00 05 00 00 D1 68 00 
    535       267.489 DT     0102 Rx 8  15 00 05 00 00 D1 69 00 
    536       267.729 DT     0103 Rx 8  14 00 05 00 00 D1 69 00 
    537       268.484 DT     0102 Rx 8  15 00 05 00 00 D1 6A 00 
    538       268.724 DT     0103 Rx 8  14 00 05 00 01 D1 6A 00 
    539       269.480 DT     0102 Rx 8  15 00 05 00 00 D1 6B 00 
    540       269.722 DT     0103 Rx 8  14 00 05 00 01 D1 6B 00 
    541       270.482 DT     0102 Rx 8  15 00 05 00 00 D1 6C 00 
    542       270.739 DT     0103 Rx 8  14 00 05 00 01 D1 6C 00 
    543       271.495 DT     0102 Rx 8  15 00 05 00 00 D1 6D 00 
    544       271.737 DT     0103 Rx 8  14 00 05 00 01 D1 6D 00 
    545       272.492 DT     0102 Rx 8  15 00 05 00 00 D1 6E 00 
    546       272.736 DT     0103 Rx 8  14 00 05 00 01 D1 6E 00 
    547       273.497 DT     0102 Rx 8  15 00 05 00 00 D1 6F 00 
    548       273.737 DT     0103 Rx 8  14 00 05 00 01 D1 6F 00 
    549       274.495 DT     0102 Rx 8  15 00 05 00 00 D1 70 00 
    550       274.739 DT     0103 Rx 8  14 00 05 00 01 D1 70 00 
    551       275.491 DT     0102 Rx 8  15 00 05 00 00 D1 71 00 
    552       275.734 DT     0103 Rx 8  14 00 05 00 01 D1 71 00 
    553       276.492 DT     0102 Rx 8  15 00 05 00 00 D1 72 00 
    554       276.734 DT     0103 Rx 8  14 00 05 00 00 D1 72 00 
    555       277.500 DT     0102 Rx 8  15 00 05 00 00 D1 73 00 
    556       277.742 DT     0103 Rx 8  14 00 05 00 00 D1 73 00 
    557       278.497 DT     0102 Rx 8  15 00 05 00 00 D1 74 00 
    558       278.739 DT     0103 Rx 8  14 00 05 00 00 D1 74 00 
    559       279.497 DT     0102 Rx 8  15 00 05 00 00 D1 75 00 
    560       279.737 DT     0103 Rx 8  14 00 05 00 00 D1 75 00 
    561       280.493 DT     0102 Rx 8  15 00 05 00 00 D1 76 00 
    562       280.734 DT     0103 Rx 8  14 00 05 00 00 D1 76 00 
    563       281.492 DT     0102 Rx 8  15 00 05 00 00 D1 77 00 
    564       281.736 DT     0103 Rx 8  14 00 05 00 00 D1 77 00 
    565       282.494 DT     0102 Rx 8  15 00 05 00 00 D1 78 00 
    566       282.740 DT     0103 Rx 8  14 00 05 00 00 D1 78 00 
    567       283.493 DT     0102 Rx 8  15 00 05 00 00 D1 79 00 
    568       283.733 DT     0103 Rx 8  14 00 05 00 01 D1 79 00 
    569       284.495 DT     0102 Rx 8  15 00 05 00 00 D1 7A 00 
    570       284.735 DT     0103 Rx 8  14 00 05 00 01 D1 7A 00 
    571       285.493 DT     0102 Rx 8  15 00 05 00 00 D1 7B 00 
    572       285.734 DT     0103 Rx 8  14 00 05 00 01 D1 7B 00 
    573       286.498 DT     0102 Rx 8  15 00 05 00 00 D1 7C 00 
    574       286.742 DT     0103 Rx 8  14 00 05 00 01 D1 7C 00 
    575       287.498 DT     0102 Rx 8  15 00 05 00 00 D1 7D 00 
    576       287.740 DT     0103 Rx 8  14 00 05 00 01 D1 7D 00 
    577       288.497 DT     0102 Rx 8  15 00 05 00 00 D1 7E 00 
    578       288.743 DT     0103 Rx 8  14 00 05 00 01 D1 7E 00 
    579       289.495 DT     0102 Rx 8  15 00 05 00 00 D1 7F 00 
    580       289.739 DT     0103 Rx 8  14 00 05 00 01 D1 7F 00 
    581       290.495 DT     0102 Rx 8  15 00 05 00 00 D1 80 00 
    582       290.740 DT     0103 Rx 8  14 00 05 00 01 D1 80 00 
    583       291.494 DT     0102 Rx 8  15 00 05 00 00 D1 81 00 
    584       291.738 DT     0103 Rx 8  14 00 05 00 01 D1 81 00 
    585       292.498 DT     0102 Rx 8  15 00 05 00 00 D1 82 00 
    586       292.742 DT     0103 Rx 8  14 00 05 00 01 D1 82 00 
    587       293.497 DT     0102 Rx 8  15 00 05 00 00 D1 83 00 
    588       293.741 DT     0103 Rx 8  14 00 05 00 01 D1 83 00 
    589       294.495 DT     0102 Rx 8  15 00 05 00 00 D1 84 00 
    590       294.739 DT     0103 Rx 8  14 00 05 00 01 D1 84 00 
    591       295.493 DT     0102 Rx 8  15 00 05 00 00 D1 85 00 
    592       295.734 DT     0103 Rx 8  14 00 05 00 01 D1 85 00 
    593       296.492 DT     0102 Rx 8  15 00 05 00 00 D1 86 00 
    594       296.736 DT     0103 Rx 8  14 00 05 00 01 D1 86 00 
    595       297.496 DT     0102 Rx 8  15 00 05 00 00 D1 87 00 
    596       297.738 DT     0103 Rx 8  14 00 05 00 00 D1 87 00 
    597       298.495 DT     0102 Rx 8  15 00 05 00 00 D1 88 00 
    598       298.737 DT     0103 Rx 8  14 00 05 00 00 D1 88 00 
    599       299.493 DT     0102 Rx 8  15 00 05 00 00 D1 89 00 
    600       299.737 DT     0103 Rx 8  14 00 05 00 00 D1 89 00 
    601       300.495 DT     0102 Rx 8  15 00 05 00 00 D1 8A 00 
    602       300.740 DT     0103 Rx 8  14 00 05 00 01 D1 8A 00 
    603       301.496 DT     0102 Rx 8  15 00 05 00 00 D1 8B 00 
    604       301.736 DT     0103 Rx 8  14 00 05 00 01 D1 8B 00 
    605       302.494 DT     0102 Rx 8  15 00 05 00 00 D1 8C 00 
    606       302.736 DT     0103 Rx 8  14 00 05 00 01 D1 8C 00 
    607       303.497 DT     0102 Rx 8  15 00 05 00 00 D1 8D 00 
    608       303.737 DT     0103 Rx 8  14 00 05 00 01 D1 8D 00 
    609       304.497 DT     0102 Rx 8  15 00 05 00 00 D1 8E 00 
    610       304.739 DT     0103 Rx 8  14 00 05 00 01 D1 8E 00 
    611       305.491 DT     0102 Rx 8  15 00 05 00 00 D1 8F 00 
    612       305.735 DT     0103 Rx 8  14 00 05 00 01 D1 8F 00 
    613       306.494 DT     0102 Rx 8  15 00 05 00 00 D1 90 00 
    614       306.738 DT     0103 Rx 8  14 00 05 00 00 D1 90 00 
    615       307.498 DT     0102 Rx 8  15 00 05 00 00 D1 91 00 
    616       307.740 DT     0103 Rx 8  14 00 05 00 00 D1 91 00 
    617       308.494 DT     0102 Rx 8  15 00 05 00 00 D1 92 00 
    618       308.735 DT     0103 Rx 8  14 00 05 00 00 D1 92 00 
    619       309.493 DT     0102 Rx 8  15 00 05 00 00 D1 93 00 
    620       309.735 DT     0103 Rx 8  14 00 05 00 00 D1 93 00 
    621       310.495 DT     0102 Rx 8  15 00 05 00 00 D1 94 00 
    622       310.739 DT     0103 Rx 8  14 00 05 00 00 D1 94 00 
    623       311.492 DT     0102 Rx 8  15 00 05 00 00 D1 95 00 
    624       311.734 DT     0103 Rx 8  14 00 05 00 00 D1 95 00 
    625       312.492 DT     0102 Rx 8  15 00 05 00 00 D1 96 00 
    626       312.736 DT     0103 Rx 8  14 00 05 00 00 D1 96 00 
    627       313.494 DT     0102 Rx 8  15 00 05 00 00 D1 97 00 
    628       313.735 DT     0103 Rx 8  14 00 05 00 00 D1 97 00 
    629       314.495 DT     0102 Rx 8  15 00 05 00 00 D1 98 00 
    630       314.737 DT     0103 Rx 8  14 00 05 00 00 D1 98 00 
    631       315.493 DT     0102 Rx 8  15 00 05 00 00 D1 99 00 
    632       315.733 DT     0103 Rx 8  14 00 05 00 01 D1 99 00 
    633       316.492 DT     0102 Rx 8  15 00 05 00 00 D1 9A 00 
    634       316.734 DT     0103 Rx 8  14 00 05 00 00 D1 9A 00 
    635       317.496 DT     0102 Rx 8  15 00 05 00 00 D1 9B 00 
    636       317.736 DT     0103 Rx 8  14 00 05 00 00 D1 9B 00 
    637       318.496 DT     0102 Rx 8  15 00 05 00 00 D1 9C 00 
    638       318.739 DT     0103 Rx 8  14 00 05 00 00 D1 9C 00 
    639       319.495 DT     0102 Rx 8  15 00 05 00 00 D1 9D 00 
    640       319.737 DT     0103 Rx 8  14 00 05 00 01 D1 9D 00 
    641       320.493 DT     0102 Rx 8  15 00 05 00 00 D1 9E 00 
    642       320.733 DT     0103 Rx 8  14 00 05 00 01 D1 9E 00 
    643       321.494 DT     0102 Rx 8  15 00 05 00 00 D1 9F 00 
    644       321.740 DT     0103 Rx 8  14 00 05 00 01 D1 9F 00 
    645       322.498 DT     0102 Rx 8  15 00 05 00 00 D1 A0 00 
    646       322.740 DT     0103 Rx 8  14 00 05 00 01 D1 A0 00 
    647       323.494 DT     0102 Rx 8  15 00 05 00 00 D1 A1 00 
    648       323.739 DT     0103 Rx 8  14 00 05 00 00 D1 A1 00 
    649       324.493 DT     0102 Rx 8  15 00 05 00 00 D1 A2 00 
    650       324.735 DT     0103 Rx 8  14 00 05 00 00 D1 A2 00 
    651       325.493 DT     0102 Rx 8  15 00 05 00 00 D1 A3 00 
    652       325.733 DT     0103 Rx 8  14 00 05 00 00 D1 A3 00 
    653       326.496 DT     0102 Rx 8  15 00 05 00 00 D1 A4 00 
    654       326.738 DT     0103 Rx 8  14 00 05 00 00 D1 A4 00 
    655       327.498 DT     0102 Rx 8  15 00 05 00 00 D1 A5 00 
    656       327.742 DT     0103 Rx 8  14 00 05 00 00 D1 A5 00 
    657       328.494 DT     0102 Rx 8  15 00 05 00 00 D1 A6 00 
    658       328.737 DT     0103 Rx 8  14 00 05 00 00 D1 A6 00 
    659       329.495 DT     0102 Rx 8  15 00 05 00 00 D1 A7 00 
    660       329.737 DT     0103 Rx 8  14 00 05 00 00 D1 A7 00 
    661       330.495 DT     0102 Rx 8  15 00 05 00 00 D1 A8 00 
    662       330.737 DT     0103 Rx 8  14 00 05 00 00 D1 A8 00 
    663       331.492 DT     0102 Rx 8  15 00 05 00 00 D1 A9 00 
    664       331.732 DT     0103 Rx 8  14 00 05 00 00 D1 A9 00 
    665       332.496 DT     0102 Rx 8  15 00 05 00 00 D1 AA 00 
    666       332.736 DT     0103 Rx 8  14 00 05 00 01 D1 AA 00 
    667       333.494 DT     0102 Rx 8  15 00 05 00 00 D1 AB 00 
    668       333.735 DT     0103 Rx 8  14 00 05 00 01 D1 AB 00 
    669       334.497 DT     0102 Rx 8  15 00 05 00 00 D1 AC 00 
    670       334.739 DT     0103 Rx 8  14 00 05 00 01 D1 AC 00 
    671       335.491 DT     0102 Rx 8  15 00 05 00 00 D1 AD 00 
    672       335.733 DT     0103 Rx 8  14 00 05 00 01 D1 AD 00 
    673       336.492 DT     0102 Rx 8  15 00 05 00 00 D1 AE 00 
    674       336.736 DT     0103 Rx 8  14 00 05 00 00 D1 AE 00 
    675       337.498 DT     0102 Rx 8  15 00 05 00 00 D1 AF 00 
    676       337.738 DT     0103 Rx 8  14 00 05 00 00 D1 AF 00 
    677       338.494 DT     0102 Rx 8  15 00 05 00 00 D1 B0 00 
    678       338.737 DT     0103 Rx 8  14 00 05 00 00 D1 B0 00 
    679       339.493 DT     0102 Rx 8  15 00 05 00 00 D1 B1 00 
    680       339.733 DT     0103 Rx 8  14 00 05 00 00 D1 B1 00 
    681       340.493 DT     0102 Rx 8  15 00 05 00 00 D1 B2 00 
    682       340.737 DT     0103 Rx 8  14 00 05 00 00 D1 B2 00 
    683       341.492 DT     0102 Rx 8  15 00 05 00 00 D1 B3 00 
    684       341.732 DT     0103 Rx 8  14 00 05 00 00 D1 B3 00 
    685       342.496 DT     0102 Rx 8  15 00 05 00 00 D1 B4 00 
    686       342.738 DT     0103 Rx 8  14 00 05 00 00 D1 B4 00 
    687       343.492 DT     0102 Rx 8  15 00 05 00 00 D1 B5 00 
    688       343.733 DT     0103 Rx 8  14 00 05 00 00 D1 B5 00 
    689       344.495 DT     0102 Rx 8  15 00 05 00 00 D1 B6 00 
    690       344.737 DT     0103 Rx 8  14 00 05 00 00 D1 B6 00 
    691       345.491 DT     0102 Rx 8  15 00 05 00 00 D1 B7 00 
    692       345.731 DT     0103 Rx 8  14 00 05 00 00 D1 B7 00 
    693       346.494 DT     0102 Rx 8  15 00 05 00 00 D1 B8 00 
    694       346.736 DT     0103 Rx 8  14 00 05 00 00 D1 B8 00 
    695       347.498 DT     0102 Rx 8  15 00 05 00 00 D1 B9 00 
    696       347.740 DT     0103 Rx 8  14 00 05 00 00 D1 B9 00 
    697       348.494 DT     0102 Rx 8  15 00 05 00 00 D1 BA 00 
    698       348.735 DT     0103 Rx 8  14 00 05 00 00 D1 BA 00 
    699       349.495 DT     0102 Rx 8  15 00 05 00 00 D1 BB 00 
    700       349.739 DT     0103 Rx 8  14 00 05 00 01 D1 BB 00 
    701       350.493 DT     0102 Rx 8  15 00 05 00 00 D1 BC 00 
    702       350.735 DT     0103 Rx 8  14 00 05 00 01 D1 BC 00 
    703       351.492 DT     0102 Rx 8  15 00 05 00 00 D1 BD 00 
    704       351.734 DT     0103 Rx 8  14 00 05 00 01 D1 BD 00 
    705       352.496 DT     0102 Rx 8  15 00 05 00 00 D1 BE 00 
    706       352.740 DT     0103 Rx 8  14 00 05 00 01 D1 BE 00 
    707       353.498 DT     0102 Rx 8  15 00 05 00 00 D1 BF 00 
    708       353.741 DT     0103 Rx 8  14 00 05 00 01 D1 BF 00 
    709       354.495 DT     0102 Rx 8  15 00 05 00 00 D1 C0 00 
    710       354.739 DT     0103 Rx 8  14 00 05 00 01 D1 C0 00 
    711       355.493 DT     0102 Rx 8  15 00 05 00 00 D1 C1 00 
    712       355.737 DT     0103 Rx 8  14 00 05 00 01 D1 C1 00 
    713       356.494 DT     0102 Rx 8  15 00 05 00 00 D1 C2 00 
    714       356.736 DT     0103 Rx 8  14 00 05 00 01 D1 C2 00 
    715       357.500 DT     0102 Rx 8  15 00 05 00 00 D1 C3 00 
    716       357.740 DT     0103 Rx 8  14 00 05 00 01 D1 C3 00 
    717       358.494 DT     0102 Rx 8  15 00 05 00 00 D1 C4 00 
    718       358.737 DT     0103 Rx 8  14 00 05 00 00 D1 C4 00 
    719       359.493 DT     0102 Rx 8  15 00 05 00 00 D1 C5 00 
    720       359.733 DT     0103 Rx 8  14 00 05 00 00 D1 C5 00 
    721       360.491 DT     0102 Rx 8  15 00 05 00 00 D1 C6 00 
    722       360.733 DT     0103 Rx 8  14 00 05 00 01 D1 C6 00 
    723       361.493 DT     0102 Rx 8  15 00 05 00 00 D1 C7 00 
    724       361.736 DT     0103 Rx 8  14 00 05 00 00 D1 C7 00 
    725       362.494 DT     0102 Rx 8  15 00 05 00 00 D1 C8 00 
    726       362.736 DT     0103 Rx 8  14 00 05 00 00 D1 C8 00 
    727       363.492 DT     0102 Rx 8  15 00 05 00 00 D1 C9 00 
    728       363.736 DT     0103 Rx 8  14 00 05 00 00 D1 C9 00 
    729       364.493 DT     0102 Rx 8  15 00 05 00 00 D1 CA 00 
    730       364.739 DT     0103 Rx 8  14 00 05 00 00 D1 CA 00 
    731       365.495 DT     0102 Rx 8  15 00 05 00 00 D1 CB 00 
    732       365.735 DT     0103 Rx 8  14 00 05 00 00 D1 CB 00 
    733       366.493 DT     0102 Rx 8  15 00 05 00 00 D1 CC 00 
    734       366.736 DT     0103 Rx 8  14 00 05 00 00 D1 CC 00 
    735       367.498 DT     0102 Rx 8  15 00 05 00 00 D1 CD 00 
    736       367.738 DT     0103 Rx 8  14 00 05 00 00 D1 CD 00 
    737       368.494 DT     0102 Rx 8  15 00 05 00 00 D1 CE 00 
    738       368.736 DT     0103 Rx 8  14 00 05 00 00 D1 CE 00 
    739       369.493 DT     0102 Rx 8  15 00 05 00 00 D1 CF 00 
    740       369.735 DT     0103 Rx 8  14 00 05 00 00 D1 CF 00 
    741       370.495 DT     0102 Rx 8  15 00 05 00 00 D1 D0 00 
    742       370.737 DT     0103 Rx 8  14 00 05 00 00 D1 D0 00 
    743       371.493 DT     0102 Rx 8  15 00 05 00 00 D1 D1 00 
    744       371.734 DT     0103 Rx 8  14 00 05 00 01 D1 D1 00 
    745       372.494 DT     0102 Rx 8  15 00 05 00 00 D1 D2 00 
    746       372.734 DT     0103 Rx 8  14 00 05 00 01 D1 D2 00 
    747       373.492 DT     0102 Rx 8  15 00 05 00 00 D1 D3 00 
    748       373.734 DT     0103 Rx 8  14 00 05 00 01 D1 D3 00 
    749       374.497 DT     0102 Rx 8  15 00 05 00 00 D1 D4 00 
    750       374.739 DT     0103 Rx 8  14 00 05 00 01 D1 D4 00 
    751       375.493 DT     0102 Rx 8  15 00 05 00 00 D1 D5 00 
    752       375.735 DT     0103 Rx 8  14 00 05 00 01 D1 D5 00 
    753       376.491 DT     0102 Rx 8  15 00 05 00 00 D1 D6 00 
    754       376.736 DT     0103 Rx 8  14 00 05 00 01 D1 D6 00 
    755       377.498 DT     0102 Rx 8  15 00 05 00 00 D1 D7 00 
    756       377.738 DT     0103 Rx 8  14 00 05 00 01 D1 D7 00 
    757       378.494 DT     0102 Rx 8  15 00 05 00 00 D1 D8 00 
    758       378.736 DT     0103 Rx 8  14 00 05 00 01 D1 D8 00 
    759       379.495 DT     0102 Rx 8  15 00 05 00 00 D1 D9 00 
    760       379.737 DT     0103 Rx 8  14 00 05 00 01 D1 D9 00 
    761       380.491 DT     0102 Rx 8  15 00 05 00 00 D1 DA 00 
    762       380.733 DT     0103 Rx 8  14 00 05 00 01 D1 DA 00 
    763       381.491 DT     0102 Rx 8  15 00 05 00 00 D1 DB 00 
    764       381.732 DT     0103 Rx 8  14 00 05 00 01 D1 DB 00 
    765       382.494 DT     0102 Rx 8  15 00 05 00 00 D1 DC 00 
    766       382.736 DT     0103 Rx 8  14 00 05 00 01 D1 DC 00 
    767       383.494 DT     0102 Rx 8  15 00 05 00 00 D1 DD 00 
    768       383.736 DT     0103 Rx 8  14 00 05 00 01 D1 DD 00 
    769       384.495 DT     0102 Rx 8  15 00 05 00 00 D1 DE 00 
    770       384.735 DT     0103 Rx 8  14 00 05 00 01 D1 DE 00 
    771       385.493 DT     0102 Rx 8  15 00 05 00 00 D1 DF 00 
    772       385.737 DT     0103 Rx 8  14 00 05 00 01 D1 DF 00 
    773       386.497 DT     0102 Rx 8  15 00 05 00 00 D1 E0 00 
    774       386.740 DT     0103 Rx 8  14 00 05 00 01 D1 E0 00 
    775       387.498 DT     0102 Rx 8  15 00 05 00 00 D1 E1 00 
    776       387.740 DT     0103 Rx 8  14 00 05 00 01 D1 E1 00 
    777       388.492 DT     0102 Rx 8  15 00 05 00 00 D1 E2 00 
    778       388.734 DT     0103 Rx 8  14 00 05 00 01 D1 E2 00 
    779       389.495 DT     0102 Rx 8  15 00 05 00 00 D1 E3 00 
    780       389.735 DT     0103 Rx 8  14 00 05 00 01 D1 E3 00 
    781       390.495 DT     0102 Rx 8  15 00 05 00 00 D1 E4 00 
    782       390.737 DT     0103 Rx 8  14 00 05 00 00 D1 E4 00 
    783       391.493 DT     0102 Rx 8  15 00 05 00 00 D1 E5 00 
    784       391.736 DT     0103 Rx 8  14 00 05 00 00 D1 E5 00 
    785       392.496 DT     0102 Rx 8  15 00 05 00 00 D1 E6 00 
    786       392.738 DT     0103 Rx 8  14 00 05 00 00 D1 E6 00 
    787       393.494 DT     0102 Rx 8  15 00 05 00 00 D1 E7 00 
    788       393.738 DT     0103 Rx 8  14 00 05 00 00 D1 E7 00 
    789       394.497 DT     0102 Rx 8  15 00 05 00 00 D1 E8 00 
    790       394.743 DT     0103 Rx 8  14 00 05 00 00 D1 E8 00 
    791       395.491 DT     0102 Rx 8  15 00 05 00 00 D1 E9 00 
    792       395.731 DT     0103 Rx 8  14 00 05 00 00 D1 E9 00 
    793       396.495 DT     0102 Rx 8  15 00 05 00 00 D1 EA 00 
    794       396.738 DT     0103 Rx 8  14 00 05 00 00 D1 EA 00 
    795       397.496 DT     0102 Rx 8  15 00 05 00 00 D1 EB 00 
    796       397.738 DT     0103 Rx 8  14 00 05 00 00 D1 EB 00 
    797       398.496 DT     0102 Rx 8  15 00 05 00 00 D1 EC 00 
    798       398.740 DT     0103 Rx 8  14 00 05 00 00 D1 EC 00 
    799       399.495 DT     0102 Rx 8  15 00 05 00 00 D1 ED 00 
    800       399.739 DT     0103 Rx 8  14 00 05 00 00 D1 ED 00 
    801       400.491 DT     0102 Rx 8  15 00 05 00 00 D1 EE 00 
    802       400.735 DT     0103 Rx 8  14 00 05 00 00 D1 EE 00 
    803       401.493 DT     0102 Rx 8  15 00 05 00 00 D1 EF 00 
    804       401.734 DT     0103 Rx 8  14 00 05 00 00 D1 EF 00 
    805       402.496 DT     0102 Rx 8  15 00 05 00 00 D1 F0 00 
    806       402.740 DT     0103 Rx 8  14 00 05 00 00 D1 F0 00 
    807       403.496 DT     0102 Rx 8  15 00 05 00 00 D1 F1 00 
    808       403.738 DT     0103 Rx 8  14 00 05 00 00 D1 F1 00 
    809       404.497 DT     0102 Rx 8  15 00 05 00 00 D1 F2 00 
    810       404.743 DT     0103 Rx 8  14 00 05 00 00 D1 F2 00 
    811       405.493 DT     0102 Rx 8  15 00 05 00 00 D1 F3 00 
    812       405.737 DT     0103 Rx 8  14 00 05 00 00 D1 F3 00 
    813       406.495 DT     0102 Rx 8  15 00 05 00 00 D1 F4 00 
    814       406.744 DT     0103 Rx 8  14 00 05 00 00 D1 F4 00 
    815       407.498 DT     0102 Rx 8  15 00 05 00 00 D1 F5 00 
    816       407.740 DT     0103 Rx 8  14 00 05 00 00 D1 F5 00 
    817       408.500 DT     0102 Rx 8  15 00 05 00 00 D1 F6 00 
    818       408.742 DT     0103 Rx 8  14 00 05 00 00 D1 F6 00 
    819       409.495 DT     0102 Rx 8  15 00 05 00 00 D1 F7 00 
    820       409.737 DT     0103 Rx 8  14 00 05 00 00 D1 F7 00 
    821       410.495 DT     0102 Rx 8  15 00 05 00 00 D1 F8 00 
    822       410.739 DT     0103 Rx 8  14 00 05 00 00 D1 F8 00 
    823       411.499 DT     0102 Rx 8  15 00 05 00 00 D1 F9 00 
    824       411.742 DT     0103 Rx 8  14 00 05 00 00 D1 F9 00 
    825       412.496 DT     0102 Rx 8  15 00 05 00 00 D1 FA 00 
    826       412.738 DT     0103 Rx 8  14 00 05 00 00 D1 FA 00 
    827       413.494 DT     0102 Rx 8  15 00 05 00 00 D1 FB 00 
    828       413.740 DT     0103 Rx 8  14 00 05 00 00 D1 FB 00 
    829       414.496 DT     0102 Rx 8  15 00 05 00 00 D1 FC 00 
    830       414.743 DT     0103 Rx 8  14 00 05 00 00 D1 FC 00 
    831       415.493 DT     0102 Rx 8  15 00 05 00 00 D1 FD 00 
    832       415.737 DT     0103 Rx 8  14 00 05 00 00 D1 FD 00 
    833       416.495 DT     0102 Rx 8  15 00 05 00 00 D1 FE 00 
    834       416.739 DT     0103 Rx 8  14 00 05 00 00 D1 FE 00 
    835       417.500 DT     0102 Rx 8  15 00 05 00 00 D1 FF 00 
    836       417.744 DT     0103 Rx 8  14 00 05 00 00 D1 FF 00 
    837       418.498 DT     0102 Rx 8  15 00 05 00 00 D2 00 00 
    838       418.742 DT     0103 Rx 8  14 00 05 00 00 D2 00 00 
    839       419.496 DT     0102 Rx 8  15 00 05 00 00 D2 01 00 
    840       419.743 DT     0103 Rx 8  14 00 05 00 00 D2 01 00 
    841       420.493 DT     0102 Rx 8  15 00 05 00 00 D2 02 00 
    842       420.737 DT     0103 Rx 8  14 00 05 00 00 D2 02 00 
    843       421.495 DT     0102 Rx 8  15 00 05 00 00 D2 03 00 
    844       421.739 DT     0103 Rx 8  14 00 05 00 00 D2 03 00 
    845       422.496 DT     0102 Rx 8  15 00 05 00 00 D2 04 00 
    846       422.740 DT     0103 Rx 8  14 00 05 00 00 D2 04 00 
    847       423.496 DT     0102 Rx 8  15 00 05 00 00 D2 05 00 
    848       423.740 DT     0103 Rx 8  14 00 05 00 00 D2 05 00 
    849       424.496 DT     0102 Rx 8  15 00 05 00 00 D2 06 00 
    850       424.739 DT     0103 Rx 8  14 00 05 00 00 D2 06 00 
    851       425.493 DT     0102 Rx 8  15 00 05 00 00 D2 07 00 
    852       425.737 DT     0103 Rx 8  14 00 05 00 01 D2 07 00 
    853       426.497 DT     0102 Rx 8  15 00 05 00 00 D2 08 00 
    854       426.741 DT     0103 Rx 8  14 00 05 00 00 D2 08 00 
    855       427.500 DT     0102 Rx 8  15 00 05 00 00 D2 09 00 
    856       427.742 DT     0103 Rx 8  14 00 05 00 00 D2 09 00 
    857       428.496 DT     0102 Rx 8  15 00 05 00 00 D2 0A 00 
    858       428.738 DT     0103 Rx 8  14 00 05 00 00 D2 0A 00 
    859       429.494 DT     0102 Rx 8  15 00 05 00 00 D2 0B 00 
    860       429.737 DT     0103 Rx 8  14 00 05 00 01 D2 0B 00 
    861       430.495 DT     0102 Rx 8  15 00 05 00 00 D2 0C 00 
    862       430.739 DT     0103 Rx 8  14 00 05 00 01 D2 0C 00 
    863       431.493 DT     0102 Rx 8  15 00 05 00 00 D2 0D 00 
    864       431.735 DT     0103 Rx 8  14 00 05 00 01 D2 0D 00 
    865       432.494 DT     0102 Rx 8  15 00 05 00 00 D2 0E 00 
    866       432.738 DT     0103 Rx 8  14 00 05 00 01 D2 0E 00 
    867       433.498 DT     0102 Rx 8  15 00 05 00 00 D2 0F 00 
    868       433.742 DT     0103 Rx 8  14 00 05 00 01 D2 0F 00 
    869       434.494 DT     0102 Rx 8  15 00 05 00 00 D2 10 00 
    870       434.737 DT     0103 Rx 8  14 00 05 00 01 D2 10 00 
    871       435.491 DT     0102 Rx 8  15 00 05 00 00 D2 11 00 
    872       435.731 DT     0103 Rx 8  14 00 05 00 01 D2 11 00 
    873       436.493 DT     0102 Rx 8  15 00 05 00 00 D2 12 00 
    874       436.733 DT     0103 Rx 8  14 00 05 00 02 D2 12 00 
    875       437.496 DT     0102 Rx 8  15 00 05 00 00 D2 13 00 
    876       437.738 DT     0103 Rx 8  14 00 05 00 01 D2 13 00 
    877       438.494 DT     0102 Rx 8  15 00 05 00 00 D2 14 00 
    878       438.736 DT     0103 Rx 8  14 00 05 00 01 D2 14 00 
    879       439.492 DT     0102 Rx 8  15 00 05 00 00 D2 15 00 
    880       439.735 DT     0103 Rx 8  14 00 05 00 01 D2 15 00 
    881       440.493 DT     0102 Rx 8  15 00 05 00 00 D2 16 00 
    882       440.733 DT     0103 Rx 8  14 00 05 00 02 D2 16 00 
    883       441.493 DT     0102 Rx 8  15 00 05 00 00 D2 17 00 
    884       441.733 DT     0103 Rx 8  14 00 05 00 01 D2 17 00 
    885       442.494 DT     0102 Rx 8  15 00 05 00 00 D2 18 00 
    886       442.738 DT     0103 Rx 8  14 00 05 00 01 D2 18 00 
    887       443.494 DT     0102 Rx 8  15 00 05 00 00 D2 19 00 
    888       443.736 DT     0103 Rx 8  14 00 05 00 01 D2 19 00 
    889       444.494 DT     0102 Rx 8  15 00 05 00 00 D2 1A 00 
    890       444.735 DT     0103 Rx 8  14 00 05 00 00 D2 1A 00 
    891       445.493 DT     0102 Rx 8  15 00 05 00 00 D2 1B 00 
    892       445.735 DT     0103 Rx 8  14 00 05 00 01 D2 1B 00 
    893       446.493 DT     0102 Rx 8  15 00 05 00 00 D2 1C 00 
    894       446.735 DT     0103 Rx 8  14 00 05 00 01 D2 1C 00 
    895       447.496 DT     0102 Rx 8  15 00 05 00 00 D2 1D 00 
    896       447.740 DT     0103 Rx 8  14 00 05 00 00 D2 1D 00 
    897       448.492 DT     0102 Rx 8  15 00 05 00 00 D2 1E 00 
    898       448.734 DT     0103 Rx 8  14 00 05 00 00 D2 1E 00 
    899       449.498 DT     0102 Rx 8  15 00 05 00 00 D2 1F 00 
    900       449.741 DT     0103 Rx 8  14 00 05 00 00 D2 1F 00 
    901       450.493 DT     0102 Rx 8  15 00 05 00 00 D2 20 00 
    902       450.737 DT     0103 Rx 8  14 00 05 00 00 D2 20 00 
    903       451.491 DT     0102 Rx 8  15 00 05 00 00 D2 21 00 
    904       451.731 DT     0103 Rx 8  14 00 05 00 00 D2 21 00 
    905       452.496 DT     0102 Rx 8  15 00 05 00 00 D2 22 00 
    906       452.736 DT     0103 Rx 8  14 00 05 00 00 D2 22 00 
    907       453.492 DT     0102 Rx 8  15 00 05 00 00 D2 23 00 
    908       453.734 DT     0103 Rx 8  14 00 05 00 00 D2 23 00 
    909       454.494 DT     0102 Rx 8  15 00 05 00 00 D2 24 00 
    910       454.737 DT     0103 Rx 8  14 00 05 00 00 D2 24 00 
    911       455.495 DT     0102 Rx 8  15 00 05 00 00 D2 25 00 
    912       455.735 DT     0103 Rx 8  14 00 05 00 01 D2 25 00 
    913       456.491 DT     0102 Rx 8  15 00 05 00 00 D2 26 00 
    914       456.733 DT     0103 Rx 8  14 00 05 00 01 D2 26 00 
    915       457.496 DT     0102 Rx 8  15 00 05 00 00 D2 27 00 
    916       457.738 DT     0103 Rx 8  14 00 05 00 00 D2 27 00 
    917       458.494 DT     0102 Rx 8  15 00 05 00 00 D2 28 00 
    918       458.736 DT     0103 Rx 8  14 00 05 00 01 D2 28 00 
    919       459.492 DT     0102 Rx 8  15 00 05 00 00 D2 29 00 
    920       459.735 DT     0103 Rx 8  14 00 05 00 00 D2 29 00 
    921       460.493 DT     0102 Rx 8  15 00 05 00 00 D2 2A 00 
    922       460.735 DT     0103 Rx 8  14 00 05 00 00 D2 2A 00 
    923       461.493 DT     0102 Rx 8  15 00 05 00 00 D2 2B 00 
    924       461.733 DT     0103 Rx 8  14 00 05 00 00 D2 2B 00 
    925       462.494 DT     0102 Rx 8  15 00 05 00 00 D2 2C 00 
    926       462.736 DT     0103 Rx 8  14 00 05 00 00 D2 2C 00 
    927       463.496 DT     0102 Rx 8  15 00 05 00 00 D2 2D 00 
    928       463.736 DT     0103 Rx 8  14 00 05 00 00 D2 2D 00 
    929       464.496 DT     0102 Rx 8  15 00 05 00 00 D2 2E 00 
    930       464.737 DT     0103 Rx 8  14 00 05 00 00 D2 2E 00 
    931       465.491 DT     0102 Rx 8  15 00 05 00 00 D2 2F 00 
    932       465.735 DT     0103 Rx 8  14 00 05 00 00 D2 2F 00 
    933       466.495 DT     0102 Rx 8  15 00 05 00 00 D2 30 00 
    934       466.741 DT     0103 Rx 8  14 00 05 00 00 D2 30 00 
    935       467.500 DT     0102 Rx 8  15 00 05 00 00 D2 31 00 
    936       467.742 DT     0103 Rx 8  14 00 05 00 00 D2 31 00 
    937       468.494 DT     0102 Rx 8  15 00 05 00 00 D2 32 00 
    938       468.736 DT     0103 Rx 8  14 00 05 00 00 D2 32 00 
    939       469.494 DT     0102 Rx 8  15 00 05 00 00 D2 33 00 
    940       469.736 DT     0103 Rx 8  14 00 05 00 00 D2 33 00 
    941       470.497 DT     0102 Rx 8  15 00 05 00 00 D2 34 00 
    942       470.739 DT     0103 Rx 8  14 00 05 00 00 D2 34 00 
    943       471.491 DT     0102 Rx 8  15 00 05 00 00 D2 35 00 
    944       471.733 DT     0103 Rx 8  14 00 05 00 00 D2 35 00 
    945       472.493 DT     0102 Rx 8  15 00 05 00 00 D2 36 00 
    946       472.738 DT     0103 Rx 8  14 00 05 00 00 D2 36 00 
    947       473.494 DT     0102 Rx 8  15 00 05 00 00 D2 37 00 
    948       473.736 DT     0103 Rx 8  14 00 05 00 00 D2 37 00 
    949       474.496 DT     0102 Rx 8  15 00 05 00 00 D2 38 00 
    950       474.738 DT     0103 Rx 8  14 00 05 00 00 D2 38 00 
    951       475.491 DT     0102 Rx 8  15 00 05 00 00 D2 39 00 
    952       475.733 DT     0103 Rx 8  14 00 05 00 01 D2 39 00 
    953       476.493 DT     0102 Rx 8  15 00 05 00 00 D2 3A 00 
    954       476.735 DT     0103 Rx 8  14 00 05 00 01 D2 3A 00 
    955       477.499 DT     0102 Rx 8  15 00 05 00 00 D2 3B 00 
    956       477.740 DT     0103 Rx 8  14 00 05 00 01 D2 3B 00 
    957       478.498 DT     0102 Rx 8  15 00 05 00 00 D2 3C 00 
    958       478.740 DT     0103 Rx 8  14 00 05 00 01 D2 3C 00 
    959       479.494 DT     0102 Rx 8  15 00 05 00 00 D2 3D 00 
    960       479.736 DT     0103 Rx 8  14 00 05 00 01 D2 3D 00 
    961       480.495 DT     0102 Rx 8  15 00 05 00 00 D2 3E 00 
    962       480.739 DT     0103 Rx 8  14 00 05 00 01 D2 3E 00 
    963       481.493 DT     0102 Rx 8  15 00 05 00 00 D2 3F 00 
    964       481.737 DT     0103 Rx 8  14 00 05 00 01 D2 3F 00 
    965       482.497 DT     0102 Rx 8  15 00 05 00 00 D2 40 00 
    966       482.740 DT     0103 Rx 8  14 00 05 00 01 D2 40 00 
    967       483.494 DT     0102 Rx 8  15 00 05 00 00 D2 41 00 
    968       483.738 DT     0103 Rx 8  14 00 05 00 00 D2 41 00 
    969       484.492 DT     0102 Rx 8  15 00 05 00 00 D2 42 00 
    970       484.734 DT     0103 Rx 8  14 00 05 00 00 D2 42 00 
    971       485.493 DT     0102 Rx 8  15 00 05 00 00 D2 43 00 
    972       485.733 DT     0103 Rx 8  14 00 05 00 00 D2 43 00 
    973       486.493 DT     0102 Rx 8  15 00 05 00 00 D2 44 00 
    974       486.735 DT     0103 Rx 8  14 00 05 00 00 D2 44 00 
    975       487.499 DT     0102 Rx 8  15 00 05 00 00 D2 45 00 
    976       487.740 DT     0103 Rx 8  14 00 05 00 01 D2 45 00 
    977       488.494 DT     0102 Rx 8  15 00 05 00 00 D2 46 00 
    978       488.734 DT     0103 Rx 8  14 00 05 00 01 D2 46 00 
    979       489.494 DT     0102 Rx 8  15 00 05 00 00 D2 47 00 
    980       489.738 DT     0103 Rx 8  14 00 05 00 01 D2 47 00 
    981       490.495 DT     0102 Rx 8  15 00 05 00 00 D2 48 00 
    982       490.737 DT     0103 Rx 8  14 00 05 00 01 D2 48 00 
    983       491.491 DT     0102 Rx 8  15 00 05 00 00 D2 49 00 
    984       491.731 DT     0103 Rx 8  14 00 05 00 01 D2 49 00 
    985       492.493 DT     0102 Rx 8  15 00 05 00 00 D2 4A 00 
    986       492.734 DT     0103 Rx 8  14 00 05 00 01 D2 4A 00 
    987       493.492 DT     0102 Rx 8  15 00 05 00 00 D2 4B 00 
    988       493.734 DT     0103 Rx 8  14 00 05 00 01 D2 4B 00 
    989       494.494 DT     0102 Rx 8  15 00 05 00 00 D2 4C 00 
    990       494.740 DT     0103 Rx 8  14 00 05 00 01 D2 4C 00 
    991       495.491 DT     0102 Rx 8  15 00 05 00 00 D2 4D 00 
    992       495.731 DT     0103 Rx 8  14 00 05 00 01 D2 4D 00 
    993       496.491 DT     0102 Rx 8  15 00 05 00 00 D2 4E 00 
    994       496.731 DT     0103 Rx 8  14 00 05 00 02 D2 4E 00 
    995       497.497 DT     0102 Rx 8  15 00 05 00 00 D2 4F 00 
    996       497.738 DT     0103 Rx 8  14 00 05 00 01 D2 4F 00 
    997       498.494 DT     0102 Rx 8  15 00 05 00 00 D2 50 00 
    998       498.734 DT     0103 Rx 8  14 00 05 00 02 D2 50 00 
    999       499.492 DT     0102 Rx 8  15 00 05 00 00 D2 51 00 
   1000       499.732 DT     0103 Rx 8  14 00 05 00 02 D2 51 00 
   1001       500.491 DT     0102 Rx 8  15 00 05 00 00 D2 52 00 
   1002       500.735 DT     0103 Rx 8  14 00 05 00 01 D2 52 00 
   1003       501.491 DT     0102 Rx 8  15 00 05 00 00 D2 53 00 
   1004       501.733 DT     0103 Rx 8  14 00 05 00 01 D2 53 00 
   1005       502.493 DT     0102 Rx 8  15 00 05 00 00 D2 54 00 
   1006       502.738 DT     0103 Rx 8  14 00 05 00 01 D2 54 00 
   1007       503.492 DT     0102 Rx 8  15 00 05 00 00 D2 55 00 
   1008       503.734 DT     0103 Rx 8  14 00 05 00 01 D2 55 00 
   1009       504.496 DT     0102 Rx 8  15 00 05 00 00 D2 56 00 
   1010       504.736 DT     0103 Rx 8  14 00 05 00 00 D2 56 00 
   1011       505.493 DT     0102 Rx 8  15 00 05 00 00 D2 57 00 
   1012       505.733 DT     0103 Rx 8  14 00 05 00 01 D2 57 00 
   1013       506.493 DT     0102 Rx 8  15 00 05 00 00 D2 58 00 
   1014       506.737 DT     0103 Rx 8  14 00 05 00 01 D2 58 00 
   1015       507.499 DT     0102 Rx 8  15 00 05 00 00 D2 59 00 
   1016       507.740 DT     0103 Rx 8  14 00 05 00 00 D2 59 00 
   1017       508.494 DT     0102 Rx 8  15 00 05 00 00 D2 5A 00 
   1018       508.736 DT     0103 Rx 8  14 00 05 00 01 D2 5A 00 
   1019       509.492 DT     0102 Rx 8  15 00 05 00 00 D2 5B 00 
   1020       509.738 DT     0103 Rx 8  14 00 05 00 01 D2 5B 00 
   1021       510.493 DT     0102 Rx 8  15 00 05 00 00 D2 5C 00 
   1022       510.735 DT     0103 Rx 8  14 00 05 00 01 D2 5C 00 
   1023       511.491 DT     0102 Rx 8  15 00 05 00 00 D2 5D 00 
   1024       511.735 DT     0103 Rx 8  14 00 05 00 01 D2 5D 00 
   1025       512.491 DT     0102 Rx 8  15 00 05 00 00 D2 5E 00 
   1026       512.736 DT     0103 Rx 8  14 00 05 00 01 D2 5E 00 
   1027       513.498 DT     0102 Rx 8  15 00 05 00 00 D2 5F 00 
   1028       513.740 DT     0103 Rx 8  14 00 05 00 00 D2 5F 00 
   1029       514.494 DT     0102 Rx 8  15 00 05 00 00 D2 60 00 
   1030       514.736 DT     0103 Rx 8  14 00 05 00 00 D2 60 00 
   1031       515.491 DT     0102 Rx 8  15 00 05 00 00 D2 61 00 
   1032       515.731 DT     0103 Rx 8  14 00 05 00 00 D2 61 00 
   1033       516.493 DT     0102 Rx 8  15 00 05 00 00 D2 62 00 
   1034       516.733 DT     0103 Rx 8  14 00 05 00 00 D2 62 00 
   1035       517.497 DT     0102 Rx 8  15 00 05 00 00 D2 63 00 
   1036       517.738 DT     0103 Rx 8  14 00 05 00 00 D2 63 00 
   1037       518.494 DT     0102 Rx 8  15 00 05 00 00 D2 64 00 
   1038       518.736 DT     0103 Rx 8  14 00 05 00 00 D2 64 00 
   1039       519.492 DT     0102 Rx 8  15 00 05 00 00 D2 65 00 
   1040       519.732 DT     0103 Rx 8  14 00 05 00 01 D2 65 00 
   1041       520.491 DT     0102 Rx 8  15 00 05 00 00 D2 66 00 
   1042       520.733 DT     0103 Rx 8  14 00 05 00 01 D2 66 00 
   1043       521.491 DT     0102 Rx 8  15 00 05 00 00 D2 67 00 
   1044       521.733 DT     0103 Rx 8  14 00 05 00 01 D2 67 00 
   1045       522.495 DT     0102 Rx 8  15 00 05 00 00 D2 68 00 
   1046       522.737 DT     0103 Rx 8  14 00 05 00 01 D2 68 00 
   1047       523.492 DT     0102 Rx 8  15 00 05 00 00 D2 69 00 
   1048       523.734 DT     0103 Rx 8  14 00 05 00 01 D2 69 00 
   1049       524.492 DT     0102 Rx 8  15 00 05 00 00 D2 6A 00 
   1050       524.736 DT     0103 Rx 8  14 00 05 00 01 D2 6A 00 
   1051       525.492 DT     0102 Rx 8  15 00 05 00 00 D2 6B 00 
   1052       525.733 DT     0103 Rx 8  14 00 05 00 01 D2 6B 00 
   1053       526.493 DT     0102 Rx 8  15 00 05 00 00 D2 6C 00 
   1054       526.735 DT     0103 Rx 8  14 00 05 00 01 D2 6C 00 
   1055       527.497 DT     0102 Rx 8  15 00 05 00 00 D2 6D 00 
   1056       527.737 DT     0103 Rx 8  14 00 05 00 00 D2 6D 00 
   1057       528.494 DT     0102 Rx 8  15 00 05 00 00 D2 6E 00 
   1058       528.736 DT     0103 Rx 8  14 00 05 00 00 D2 6E 00 
   1059       529.492 DT     0102 Rx 8  15 00 05 00 00 D2 6F 00 
   1060       529.736 DT     0103 Rx 8  14 00 05 00 01 D2 6F 00 
   1061       530.496 DT     0102 Rx 8  15 00 05 00 00 D2 70 00 
   1062       530.739 DT     0103 Rx 8  14 00 05 00 00 D2 70 00 
   1063       531.493 DT     0102 Rx 8  15 00 05 00 00 D2 71 00 
   1064       531.735 DT     0103 Rx 8  14 00 05 00 00 D2 71 00 
   1065       532.493 DT     0102 Rx 8  15 00 05 00 00 D2 72 00 
   1066       532.735 DT     0103 Rx 8  14 00 05 00 00 D2 72 00 
   1067       533.494 DT     0102 Rx 8  15 00 05 00 00 D2 73 00 
   1068       533.736 DT     0103 Rx 8  14 00 05 00 00 D2 73 00 
   1069       534.494 DT     0102 Rx 8  15 00 05 00 00 D2 74 00 
   1070       534.736 DT     0103 Rx 8  14 00 05 00 00 D2 74 00 
   1071       535.490 DT     0102 Rx 8  15 00 05 00 00 D2 75 00 
   1072       535.733 DT     0103 Rx 8  14 00 05 00 00 D2 75 00 
   1073       536.493 DT     0102 Rx 8  15 00 05 00 00 D2 76 00 
   1074       536.737 DT     0103 Rx 8  14 00 05 00 00 D2 76 00 
   1075       537.499 DT     0102 Rx 8  15 00 05 00 00 D2 77 00 
   1076       537.741 DT     0103 Rx 8  14 00 05 00 00 D2 77 00 
   1077       538.496 DT     0102 Rx 8  15 00 05 00 00 D2 78 00 
   1078       538.738 DT     0103 Rx 8  14 00 05 00 00 D2 78 00 
   1079       539.494 DT     0102 Rx 8  15 00 05 00 00 D2 79 00 
   1080       539.736 DT     0103 Rx 8  14 00 05 00 00 D2 79 00 
   1081       540.490 DT     0102 Rx 8  15 00 05 00 00 D2 7A 00 
   1082       540.735 DT     0103 Rx 8  14 00 05 00 00 D2 7A 00 
   1083       541.493 DT     0102 Rx 8  15 00 05 00 00 D2 7B 00 
   1084       541.733 DT     0103 Rx 8  14 00 05 00 00 D2 7B 00 
   1085       542.497 DT     0102 Rx 8  15 00 05 00 00 D2 7C 00 
   1086       542.743 DT     0103 Rx 8  14 00 05 00 00 D2 7C 00 
   1087       543.496 DT     0102 Rx 8  15 00 05 00 00 D2 7D 00 
   1088       543.740 DT     0103 Rx 8  14 00 05 00 00 D2 7D 00 
   1089       544.496 DT     0102 Rx 8  15 00 05 00 00 D2 7E 00 
   1090       544.738 DT     0103 Rx 8  14 00 05 00 00 D2 7E 00 
   1091       545.492 DT     0102 Rx 8  15 00 05 00 00 D2 7F 00 
   1092       545.735 DT     0103 Rx 8  14 00 05 00 00 D2 7F 00 
   1093       546.497 DT     0102 Rx 8  15 00 05 00 00 D2 80 00 
   1094       546.741 DT     0103 Rx 8  14 00 05 00 00 D2 80 00 
   1095       547.497 DT     0102 Rx 8  15 00 05 00 00 D2 81 00 
   1096       547.739 DT     0103 Rx 8  14 00 05 00 00 D2 81 00 
   1097       548.494 DT     0102 Rx 8  15 00 05 00 00 D2 82 00 
   1098       548.738 DT     0103 Rx 8  14 00 05 00 00 D2 82 00 
   1099       549.494 DT     0102 Rx 8  15 00 05 00 00 D2 83 00 
   1100       549.736 DT     0103 Rx 8  14 00 05 00 00 D2 83 00 
   1101       550.494 DT     0102 Rx 8  15 00 05 00 00 D2 84 00 
   1102       550.737 DT     0103 Rx 8  14 00 05 00 00 D2 84 00 
   1103       551.491 DT     0102 Rx 8  15 00 05 00 00 D2 85 00 
   1104       551.731 DT     0103 Rx 8  14 00 05 00 00 D2 85 00 
   1105       552.493 DT     0102 Rx 8  15 00 05 00 00 D2 86 00 
   1106       552.733 DT     0103 Rx 8  14 00 05 00 00 D2 86 00 
   1107       553.492 DT     0102 Rx 8  15 00 05 00 00 D2 87 00 
   1108       553.732 DT     0103 Rx 8  14 00 05 00 01 D2 87 00 
   1109       554.494 DT     0102 Rx 8  15 00 05 00 00 D2 88 00 
   1110       554.740 DT     0103 Rx 8  14 00 05 00 01 D2 88 00 
   1111       555.492 DT     0102 Rx 8  15 00 05 00 00 D2 89 00 
   1112       555.735 DT     0103 Rx 8  14 00 05 00 01 D2 89 00 
   1113       556.493 DT     0102 Rx 8  15 00 05 00 00 D2 8A 00 
   1114       556.733 DT     0103 Rx 8  14 00 05 00 01 D2 8A 00 
   1115       557.495 DT     0102 Rx 8  15 00 05 00 00 D2 8B 00 
   1116       557.737 DT     0103 Rx 8  14 00 05 00 01 D2 8B 00 
   1117       558.494 DT     0102 Rx 8  15 00 05 00 00 D2 8C 00 
   1118       558.736 DT     0103 Rx 8  14 00 05 00 01 D2 8C 00 
   1119       559.492 DT     0102 Rx 8  15 00 05 00 00 D2 8D 00 
   1120       559.734 DT     0103 Rx 8  14 00 05 00 00 D2 8D 00 
   1121       560.490 DT     0102 Rx 8  15 00 05 00 00 D2 8E 00 
   1122       560.733 DT     0103 Rx 8  14 00 05 00 01 D2 8E 00 
   1123       561.493 DT     0102 Rx 8  15 00 05 00 00 D2 8F 00 
   1124       561.733 DT     0103 Rx 8  14 00 05 00 00 D2 8F 00 
   1125       562.495 DT     0102 Rx 8  15 00 05 00 00 D2 90 00 
   1126       562.737 DT     0103 Rx 8  14 00 05 00 00 D2 90 00 
   1127       563.492 DT     0102 Rx 8  15 00 05 00 00 D2 91 00 
   1128       563.734 DT     0103 Rx 8  14 00 05 00 00 D2 91 00 
   1129       564.492 DT     0102 Rx 8  15 00 05 00 00 D2 92 00 
   1130       564.734 DT     0103 Rx 8  14 00 05 00 00 D2 92 00 
   1131       565.492 DT     0102 Rx 8  15 00 05 00 00 D2 93 00 
   1132       565.733 DT     0103 Rx 8  14 00 05 00 00 D2 93 00 
   1133       566.495 DT     0102 Rx 8  15 00 05 00 00 D2 94 00 
   1134       566.737 DT     0103 Rx 8  14 00 05 00 00 D2 94 00 
   1135       567.497 DT     0102 Rx 8  15 00 05 00 00 D2 95 00 
   1136       567.739 DT     0103 Rx 8  14 00 05 00 01 D2 95 00 
   1137       568.494 DT     0102 Rx 8  15 00 05 00 00 D2 96 00 
   1138       568.736 DT     0103 Rx 8  14 00 05 00 01 D2 96 00 
   1139       569.496 DT     0102 Rx 8  15 00 05 00 00 D2 97 00 
   1140       569.738 DT     0103 Rx 8  14 00 05 00 01 D2 97 00 
   1141       570.492 DT     0102 Rx 8  15 00 05 00 00 D2 98 00 
   1142       570.735 DT     0103 Rx 8  14 00 05 00 00 D2 98 00 
   1143       571.491 DT     0102 Rx 8  15 00 05 00 00 D2 99 00 
   1144       571.731 DT     0103 Rx 8  14 00 05 00 00 D2 99 00 
   1145       572.495 DT     0102 Rx 8  15 00 05 00 00 D2 9A 00 
   1146       572.737 DT     0103 Rx 8  14 00 05 00 01 D2 9A 00 
   1147       573.492 DT     0102 Rx 8  15 00 05 00 00 D2 9B 00 
   1148       573.732 DT     0103 Rx 8  14 00 05 00 01 D2 9B 00 
   1149       574.496 DT     0102 Rx 8  15 00 05 00 00 D2 9C 00 
   1150       574.738 DT     0103 Rx 8  14 00 05 00 00 D2 9C 00 
   1151       575.490 DT     0102 Rx 8  15 00 05 00 00 D2 9D 00 
   1152       575.731 DT     0103 Rx 8  14 00 05 00 00 D2 9D 00 
   1153       576.491 DT     0102 Rx 8  15 00 05 00 00 D2 9E 00 
   1154       576.737 DT     0103 Rx 8  14 00 05 00 00 D2 9E 00 
   1155       577.499 DT     0102 Rx 8  15 00 05 00 00 D2 9F 00 
   1156       577.741 DT     0103 Rx 8  14 00 05 00 00 D2 9F 00 
   1157       578.493 DT     0102 Rx 8  15 00 05 00 00 D2 A0 00 
   1158       578.738 DT     0103 Rx 8  14 00 05 00 00 D2 A0 00 
   1159       579.494 DT     0102 Rx 8  15 00 05 00 00 D2 A1 00 
   1160       579.734 DT     0103 Rx 8  14 00 05 00 00 D2 A1 00 
   1161       580.494 DT     0102 Rx 8  15 00 05 00 00 D2 A2 00 
   1162       580.736 DT     0103 Rx 8  14 00 05 00 00 D2 A2 00 
   1163       581.491 DT     0102 Rx 8  15 00 05 00 00 D2 A3 00 
   1164       581.733 DT     0103 Rx 8  14 00 05 00 00 D2 A3 00 
   1165       582.493 DT     0102 Rx 8  15 00 05 00 00 D2 A4 00 
   1166       582.739 DT     0103 Rx 8  14 00 05 00 00 D2 A4 00 
   1167       583.491 DT     0102 Rx 8  15 00 05 00 00 D2 A5 00 
   1168       583.736 DT     0103 Rx 8  14 00 05 00 00 D2 A5 00 
   1169       584.494 DT     0102 Rx 8  15 00 05 00 00 D2 A6 00 
   1170       584.736 DT     0103 Rx 8  14 00 05 00 00 D2 A6 00 
   1171       585.492 DT     0102 Rx 8  15 00 05 00 00 D2 A7 00 
   1172       585.732 DT     0103 Rx 8  14 00 05 00 00 D2 A7 00 
   1173       586.493 DT     0102 Rx 8  15 00 05 00 00 D2 A8 00 
   1174       586.735 DT     0103 Rx 8  14 00 05 00 00 D2 A8 00 
   1175       587.497 DT     0102 Rx 8  15 00 05 00 00 D2 A9 00 
   1176       587.737 DT     0103 Rx 8  14 00 05 00 00 D2 A9 00 
   1177       588.491 DT     0102 Rx 8  15 00 05 00 00 D2 AA 00 
   1178       588.736 DT     0103 Rx 8  14 00 05 00 00 D2 AA 00 
   1179       589.492 DT     0102 Rx 8  15 00 05 00 00 D2 AB 00 
   1180       589.736 DT     0103 Rx 8  14 00 05 00 01 D2 AB 00 
   1181       590.492 DT     0102 Rx 8  15 00 05 00 00 D2 AC 00 
   1182       590.736 DT     0103 Rx 8  14 00 05 00 01 D2 AC 00 
   1183       591.491 DT     0102 Rx 8  15 00 05 00 00 D2 AD 00 
   1184       591.733 DT     0103 Rx 8  14 00 05 00 00 D2 AD 00 
   1185       592.493 DT     0102 Rx 8  15 00 05 00 00 D2 AE 00 
   1186       592.733 DT     0103 Rx 8  14 00 05 00 00 D2 AE 00 
   1187       593.493 DT     0102 Rx 8  15 00 05 00 00 D2 AF 00 
   1188       593.736 DT     0103 Rx 8  14 00 05 00 00 D2 AF 00 
   1189       594.496 DT     0102 Rx 8  15 00 05 00 00 D2 B0 00 
   1190       594.740 DT     0103 Rx 8  14 00 05 00 00 D2 B0 00 
   1191       595.494 DT     0102 Rx 8  15 00 05 00 00 D2 B1 00 
   1192       595.738 DT     0103 Rx 8  14 00 05 00 00 D2 B1 00 
   1193       596.493 DT     0102 Rx 8  15 00 05 00 00 D2 B2 00 
   1194       596.735 DT     0103 Rx 8  14 00 05 00 00 D2 B2 00 
   1195       597.497 DT     0102 Rx 8  15 00 05 00 00 D2 B3 00 
   1196       597.737 DT     0103 Rx 8  14 00 05 00 00 D2 B3 00 
   1197       598.493 DT     0102 Rx 8  15 00 05 00 00 D2 B4 00 
   1198       598.736 DT     0103 Rx 8  14 00 05 00 00 D2 B4 00 
   1199       599.494 DT     0102 Rx 8  15 00 05 00 00 D2 B5 00 
   1200       599.734 DT     0103 Rx 8  14 00 05 00 00 D2 B5 00 
   1201       600.494 DT     0102 Rx 8  15 00 05 00 00 D2 B6 00 
   1202       600.736 DT     0103 Rx 8  14 00 05 00 00 D2 B6 00 
   1203       601.491 DT     0102 Rx 8  15 00 05 00 00 D2 B7 00 
   1204       601.733 DT     0103 Rx 8  14 00 05 00 00 D2 B7 00 
   1205       602.495 DT     0102 Rx 8  15 00 05 00 00 D2 B8 00 
   1206       602.739 DT     0103 Rx 8  14 00 05 00 00 D2 B8 00 
   1207       603.493 DT     0102 Rx 8  15 00 05 00 00 D2 B9 00 
   1208       603.738 DT     0103 Rx 8  14 00 05 00 00 D2 B9 00 
   1209       604.494 DT     0102 Rx 8  15 00 05 00 00 D2 BA 00 
   1210       604.738 DT     0103 Rx 8  14 00 05 00 00 D2 BA 00 
   1211       605.494 DT     0102 Rx 8  15 00 05 00 00 D2 BB 00 
   1212       605.736 DT     0103 Rx 8  14 00 05 00 00 D2 BB 00 
   1213       606.493 DT     0102 Rx 8  15 00 05 00 00 D2 BC 00 
   1214       606.737 DT     0103 Rx 8  14 00 05 00 00 D2 BC 00 
   1215       607.499 DT     0102 Rx 8  15 00 05 00 00 D2 BD 00 
   1216       607.739 DT     0103 Rx 8  14 00 05 00 00 D2 BD 00 
   1217       608.497 DT     0102 Rx 8  15 00 05 00 00 D2 BE 00 
   1218       608.742 DT     0103 Rx 8  14 00 05 00 00 D2 BE 00 
   1219       609.494 DT     0102 Rx 8  15 00 05 00 00 D2 BF 00 
   1220       609.738 DT     0103 Rx 8  14 00 05 00 00 D2 BF 00 
   1221       610.494 DT     0102 Rx 8  15 00 05 00 00 D2 C0 00 
   1222       610.740 DT     0103 Rx 8  14 00 05 00 00 D2 C0 00 
   1223       611.493 DT     0102 Rx 8  15 00 05 00 00 D2 C1 00 
   1224       611.735 DT     0103 Rx 8  14 00 05 00 00 D2 C1 00 
   1225       612.493 DT     0102 Rx 8  15 00 05 00 00 D2 C2 00 
   1226       612.735 DT     0103 Rx 8  14 00 05 00 00 D2 C2 00 
   1227       613.491 DT     0102 Rx 8  15 00 05 00 00 D2 C3 00 
   1228       613.732 DT     0103 Rx 8  14 00 05 00 00 D2 C3 00 
   1229       614.496 DT     0102 Rx 8  15 00 05 00 00 D2 C4 00 
   1230       614.740 DT     0103 Rx 8  14 00 05 00 00 D2 C4 00 
   1231       615.492 DT     0102 Rx 8  15 00 05 00 00 D2 C5 00 
   1232       615.732 DT     0103 Rx 8  14 00 05 00 00 D2 C5 00 
   1233       616.493 DT     0102 Rx 8  15 00 05 00 00 D2 C6 00 
   1234       616.733 DT     0103 Rx 8  14 00 05 00 00 D2 C6 00 
   1235       617.495 DT     0102 Rx 8  15 00 05 00 00 D2 C7 00 
   1236       617.737 DT     0103 Rx 8  14 00 05 00 00 D2 C7 00 
   1237       618.493 DT     0102 Rx 8  15 00 05 00 00 D2 C8 00 
   1238       618.740 DT     0103 Rx 8  14 00 05 00 00 D2 C8 00 
   1239       619.495 DT     0102 Rx 8  15 00 05 00 00 D2 C9 00 
   1240       619.735 DT     0103 Rx 8  14 00 05 00 00 D2 C9 00 
   1241       620.493 DT     0102 Rx 8  15 00 05 00 00 D2 CA 00 
   1242       620.733 DT     0103 Rx 8  14 00 05 00 00 D2 CA 00 
   1243       621.490 DT     0102 Rx 8  15 00 05 00 00 D2 CB 00 
   1244       621.732 DT     0103 Rx 8  14 00 05 00 00 D2 CB 00 
   1245       622.492 DT     0102 Rx 8  15 00 05 00 00 D2 CC 00 
   1246       622.734 DT     0103 Rx 8  14 00 05 00 01 D2 CC 00 
   1247       623.494 DT     0102 Rx 8  15 00 05 00 00 D2 CD 00 
   1248       623.737 DT     0103 Rx 8  14 00 05 00 01 D2 CD 00 
   1249       624.491 DT     0102 Rx 8  15 00 05 00 00 D2 CE 00 
   1250       624.735 DT     0103 Rx 8  14 00 05 00 01 D2 CE 00 
   1251       625.491 DT     0102 Rx 8  15 00 05 00 00 D2 CF 00 
   1252       625.731 DT     0103 Rx 8  14 00 05 00 01 D2 CF 00 
   1253       626.492 DT     0102 Rx 8  15 00 05 00 00 D2 D0 00 
   1254       626.734 DT     0103 Rx 8  14 00 05 00 00 D2 D0 00 
   1255       627.494 DT     0102 Rx 8  15 00 05 00 00 D2 D1 00 
   1256       627.736 DT     0103 Rx 8  14 00 05 00 01 D2 D1 00 
   1257       628.490 DT     0102 Rx 8  15 00 05 00 00 D2 D2 00 
   1258       628.733 DT     0103 Rx 8  14 00 05 00 01 D2 D2 00 
   1259       629.495 DT     0102 Rx 8  15 00 05 00 00 D2 D3 00 
   1260       629.737 DT     0103 Rx 8  14 00 05 00 01 D2 D3 00 
   1261       630.493 DT     0102 Rx 8  15 00 05 00 00 D2 D4 00 
   1262       630.735 DT     0103 Rx 8  14 00 05 00 00 D2 D4 00 
   1263       631.491 DT     0102 Rx 8  15 00 05 00 00 D2 D5 00 
   1264       631.734 DT     0103 Rx 8  14 00 05 00 01 D2 D5 00 
   1265       632.492 DT     0102 Rx 8  15 00 05 00 00 D2 D6 00 
   1266       632.734 DT     0103 Rx 8  14 00 05 00 00 D2 D6 00 
   1267       633.490 DT     0102 Rx 8  15 00 05 00 00 D2 D7 00 
   1268       633.734 DT     0103 Rx 8  14 00 05 00 00 D2 D7 00 
   1269       634.493 DT     0102 Rx 8  15 00 05 00 00 D2 D8 00 
   1270       634.735 DT     0103 Rx 8  14 00 05 00 00 D2 D8 00 
   1271       635.489 DT     0102 Rx 8  15 00 05 00 00 D2 D9 00 
   1272       635.731 DT     0103 Rx 8  14 00 05 00 00 D2 D9 00 
   1273       636.493 DT     0102 Rx 8  15 00 05 00 00 D2 DA 00 
   1274       636.736 DT     0103 Rx 8  14 00 05 00 00 D2 DA 00 
   1275       637.496 DT     0102 Rx 8  15 00 05 00 00 D2 DB 00 
   1276       637.736 DT     0103 Rx 8  14 00 05 00 00 D2 DB 00 
   1277       638.494 DT     0102 Rx 8  15 00 05 00 00 D2 DC 00 
   1278       638.736 DT     0103 Rx 8  14 00 05 00 00 D2 DC 00 
   1279       639.491 DT     0102 Rx 8  15 00 05 00 00 D2 DD 00 
   1280       639.731 DT     0103 Rx 8  14 00 05 00 00 D2 DD 00 
   1281       640.491 DT     0102 Rx 8  15 00 05 00 00 D2 DE 00 
   1282       640.735 DT     0103 Rx 8  14 00 05 00 00 D2 DE 00 
   1283       641.493 DT     0102 Rx 8  15 00 05 00 00 D2 DF 00 
   1284       641.736 DT     0103 Rx 8  14 00 05 00 00 D2 DF 00 
   1285       642.492 DT     0102 Rx 8  15 00 05 00 00 D2 E0 00 
   1286       642.736 DT     0103 Rx 8  14 00 05 00 00 D2 E0 00 
   1287       643.492 DT     0102 Rx 8  15 00 05 00 00 D2 E1 00 
   1288       643.732 DT     0103 Rx 8  14 00 05 00 00 D2 E1 00 
   1289       644.493 DT     0102 Rx 8  15 00 05 00 00 D2 E2 00 
   1290       644.735 DT     0103 Rx 8  14 00 05 00 00 D2 E2 00 
   1291       645.489 DT     0102 Rx 8  15 00 05 00 00 D2 E3 00 
   1292       645.731 DT     0103 Rx 8  14 00 05 00 00 D2 E3 00 
   1293       646.493 DT     0102 Rx 8  15 00 05 00 00 D2 E4 00 
   1294       646.738 DT     0103 Rx 8  14 00 05 00 00 D2 E4 00 
   1295       647.494 DT     0102 Rx 8  15 00 05 00 00 D2 E5 00 
   1296       647.736 DT     0103 Rx 8  14 00 05 00 01 D2 E5 00 
   1297       648.492 DT     0102 Rx 8  15 00 05 00 00 D2 E6 00 
   1298       648.736 DT     0103 Rx 8  14 00 05 00 00 D2 E6 00 
   1299       649.493 DT     0102 Rx 8  15 00 05 00 00 D2 E7 00 
   1300       649.733 DT     0103 Rx 8  14 00 05 00 00 D2 E7 00 
   1301       650.491 DT     0102 Rx 8  15 00 05 00 00 D2 E8 00 
   1302       650.733 DT     0103 Rx 8  14 00 05 00 00 D2 E8 00 
   1303       651.489 DT     0102 Rx 8  15 00 05 00 00 D2 E9 00 
   1304       651.732 DT     0103 Rx 8  14 00 05 00 00 D2 E9 00 
   1305       652.490 DT     0102 Rx 8  15 00 05 00 00 D2 EA 00 
   1306       652.732 DT     0103 Rx 8  14 00 05 00 00 D2 EA 00 
   1307       653.492 DT     0102 Rx 8  15 00 05 00 00 D2 EB 00 
   1308       653.732 DT     0103 Rx 8  14 00 05 00 00 D2 EB 00 
   1309       654.493 DT     0102 Rx 8  15 00 05 00 00 D2 EC 00 
   1310       654.737 DT     0103 Rx 8  14 00 05 00 00 D2 EC 00 
   1311       655.489 DT     0102 Rx 8  15 00 05 00 00 D2 ED 00 
   1312       655.729 DT     0103 Rx 8  14 00 05 00 00 D2 ED 00 
   1313       656.493 DT     0102 Rx 8  15 00 05 00 00 D2 EE 00 
   1314       656.734 DT     0103 Rx 8  14 00 05 00 00 D2 EE 00 
   1315       657.496 DT     0102 Rx 8  15 00 05 00 00 D2 EF 00 
   1316       657.736 DT     0103 Rx 8  14 00 05 00 00 D2 EF 00 
   1317       658.494 DT     0102 Rx 8  15 00 05 00 00 D2 F0 00 
   1318       658.736 DT     0103 Rx 8  14 00 05 00 00 D2 F0 00 
   1319       659.491 DT     0102 Rx 8  15 00 05 00 00 D2 F1 00 
   1320       659.733 DT     0103 Rx 8  14 00 05 00 00 D2 F1 00 
   1321       660.491 DT     0102 Rx 8  15 00 05 00 00 D2 F2 00 
   1322       660.733 DT     0103 Rx 8  14 00 05 00 00 D2 F2 00 
   1323       661.493 DT     0102 Rx 8  15 00 05 00 00 D2 F3 00 
   1324       661.734 DT     0103 Rx 8  14 00 05 00 00 D2 F3 00 
   1325       662.492 DT     0102 Rx 8  15 00 05 00 00 D2 F4 00 
   1326       662.736 DT     0103 Rx 8  14 00 05 00 00 D2 F4 00 
   1327       663.490 DT     0102 Rx 8  15 00 05 00 00 D2 F5 00 
   1328       663.732 DT     0103 Rx 8  14 00 05 00 00 D2 F5 00 
   1329       664.493 DT     0102 Rx 8  15 00 05 00 00 D2 F6 00 
   1330       664.737 DT     0103 Rx 8  14 00 05 00 00 D2 F6 00 
   1331       665.491 DT     0102 Rx 8  15 00 05 00 00 D2 F7 00 
   1332       665.733 DT     0103 Rx 8  14 00 05 00 00 D2 F7 00 
   1333       666.497 DT     0102 Rx 8  15 00 05 00 00 D2 F8 00 
   1334       666.742 DT     0103 Rx 8  14 00 05 00 00 D2 F8 00 
   1335       667.496 DT     0102 Rx 8  15 00 05 00 00 D2 F9 00 
   1336       667.742 DT     0103 Rx 8  14 00 05 00 00 D2 F9 00 
   1337       668.492 DT     0102 Rx 8  15 00 05 00 00 D2 FA 00 
   1338       668.740 DT     0103 Rx 8  14 00 05 00 00 D2 FA 00 
   1339       669.497 DT     0102 Rx 8  15 00 05 00 00 D2 FB 00 
   1340       669.739 DT     0103 Rx 8  14 00 05 00 01 D2 FB 00 
   1341       670.495 DT     0102 Rx 8  15 00 05 00 00 D2 FC 00 
   1342       670.739 DT     0103 Rx 8  14 00 05 00 01 D2 FC 00 
   1343       671.495 DT     0102 Rx 8  15 00 05 00 00 D2 FD 00 
   1344       671.738 DT     0103 Rx 8  14 00 05 00 01 D2 FD 00 
   1345       672.494 DT     0102 Rx 8  15 00 05 00 00 D2 FE 00 
   1346       672.736 DT     0103 Rx 8  14 00 05 00 01 D2 FE 00 
   1347       673.492 DT     0102 Rx 8  15 00 05 00 00 D2 FF 00 
   1348       673.736 DT     0103 Rx 8  14 00 05 00 01 D2 FF 00 
   1349       674.495 DT     0102 Rx 8  15 00 05 00 00 D3 00 00 
   1350       674.739 DT     0103 Rx 8  14 00 05 00 01 D3 00 00 
   1351       675.491 DT     0102 Rx 8  15 00 05 00 00 D3 01 00 
   1352       675.735 DT     0103 Rx 8  14 00 05 00 01 D3 01 00 
   1353       676.493 DT     0102 Rx 8  15 00 05 00 00 D3 02 00 
   1354       676.736 DT     0103 Rx 8  14 00 05 00 01 D3 02 00 
   1355       677.498 DT     0102 Rx 8  15 00 05 00 00 D3 03 00 
   1356       677.740 DT     0103 Rx 8  14 00 05 00 01 D3 03 00 
   1357       678.496 DT     0102 Rx 8  15 00 05 00 00 D3 04 00 
   1358       678.740 DT     0103 Rx 8  14 00 05 00 01 D3 04 00 
   1359       679.493 DT     0102 Rx 8  15 00 05 00 00 D3 05 00 
   1360       679.735 DT     0103 Rx 8  14 00 05 00 01 D3 05 00 
   1361       680.491 DT     0102 Rx 8  15 00 05 00 00 D3 06 00 
   1362       680.737 DT     0103 Rx 8  14 00 05 00 00 D3 06 00 
   1363       681.491 DT     0102 Rx 8  15 00 05 00 00 D3 07 00 
   1364       681.736 DT     0103 Rx 8  14 00 05 00 00 D3 07 00 
   1365       682.492 DT     0102 Rx 8  15 00 05 00 00 D3 08 00 
   1366       682.734 DT     0103 Rx 8  14 00 05 00 00 D3 08 00 
   1367       683.490 DT     0102 Rx 8  15 00 05 00 00 D3 09 00 
   1368       683.732 DT     0103 Rx 8  14 00 05 00 00 D3 09 00 
   1369       684.491 DT     0102 Rx 8  15 00 05 00 00 D3 0A 00 
   1370       684.733 DT     0103 Rx 8  14 00 05 00 00 D3 0A 00 
   1371       685.491 DT     0102 Rx 8  15 00 05 00 00 D3 0B 00 
   1372       685.731 DT     0103 Rx 8  14 00 05 00 00 D3 0B 00 
   1373       686.493 DT     0102 Rx 8  15 00 05 00 00 D3 0C 00 
   1374       686.735 DT     0103 Rx 8  14 00 05 00 00 D3 0C 00 
   1375       687.496 DT     0102 Rx 8  15 00 05 00 00 D3 0D 00 
   1376       687.736 DT     0103 Rx 8  14 00 05 00 00 D3 0D 00 
   1377       688.492 DT     0102 Rx 8  15 00 05 00 00 D3 0E 00 
   1378       688.736 DT     0103 Rx 8  14 00 05 00 00 D3 0E 00 
   1379       689.490 DT     0102 Rx 8  15 00 05 00 00 D3 0F 00 
   1380       689.733 DT     0103 Rx 8  14 00 05 00 00 D3 0F 00 
   1381       690.493 DT     0102 Rx 8  15 00 05 00 00 D3 10 00 
   1382       690.737 DT     0103 Rx 8  14 00 05 00 00 D3 10 00 
   1383       691.491 DT     0102 Rx 8  15 00 05 00 00 D3 11 00 
   1384       691.731 DT     0103 Rx 8  14 00 05 00 00 D3 11 00 
   1385       692.494 DT     0102 Rx 8  15 00 05 00 00 D3 12 00 
   1386       692.734 DT     0103 Rx 8  14 00 05 00 00 D3 12 00 
   1387       693.490 DT     0102 Rx 8  15 00 05 00 00 D3 13 00 
   1388       693.732 DT     0103 Rx 8  14 00 05 00 00 D3 13 00 
   1389       694.492 DT     0102 Rx 8  15 00 05 00 00 D3 14 00 
   1390       694.735 DT     0103 Rx 8  14 00 05 00 00 D3 14 00 
   1391       695.489 DT     0102 Rx 8  15 00 05 00 00 D3 15 00 
   1392       695.731 DT     0103 Rx 8  14 00 05 00 00 D3 15 00 
   1393       696.489 DT     0102 Rx 8  15 00 05 00 00 D3 16 00 
   1394       696.731 DT     0103 Rx 8  14 00 05 00 00 D3 16 00 
   1395       697.496 DT     0102 Rx 8  15 00 05 00 00 D3 17 00 
   1396       697.736 DT     0103 Rx 8  14 00 05 00 00 D3 17 00 
   1397       698.492 DT     0102 Rx 8  15 00 05 00 00 D3 18 00 
   1398       698.736 DT     0103 Rx 8  14 00 05 00 01 D3 18 00 
   1399       699.492 DT     0102 Rx 8  15 00 05 00 00 D3 19 00 
   1400       699.733 DT     0103 Rx 8  14 00 05 00 00 D3 19 00 
   1401       700.493 DT     0102 Rx 8  15 00 05 00 00 D3 1A 00 
   1402       700.735 DT     0103 Rx 8  14 00 05 00 00 D3 1A 00 
   1403       701.489 DT     0102 Rx 8  15 00 05 00 00 D3 1B 00 
   1404       701.729 DT     0103 Rx 8  14 00 05 00 00 D3 1B 00 
   1405       702.492 DT     0102 Rx 8  15 00 05 00 00 D3 1C 00 
   1406       702.734 DT     0103 Rx 8  14 00 05 00 00 D3 1C 00 
   1407       703.490 DT     0102 Rx 8  15 00 05 00 00 D3 1D 00 
   1408       703.732 DT     0103 Rx 8  14 00 05 00 00 D3 1D 00 
   1409       704.492 DT     0102 Rx 8  15 00 05 00 00 D3 1E 00 
   1410       704.735 DT     0103 Rx 8  14 00 05 00 01 D3 1E 00 
   1411       705.491 DT     0102 Rx 8  15 00 05 00 00 D3 1F 00 
   1412       705.735 DT     0103 Rx 8  14 00 05 00 01 D3 1F 00 
   1413       706.495 DT     0102 Rx 8  15 00 05 00 00 D3 20 00 
   1414       706.737 DT     0103 Rx 8  14 00 05 00 00 D3 20 00 
   1415       707.494 DT     0102 Rx 8  15 00 05 00 00 D3 21 00 
   1416       707.736 DT     0103 Rx 8  14 00 05 00 00 D3 21 00 
   1417       708.490 DT     0102 Rx 8  15 00 05 00 00 D3 22 00 
   1418       708.734 DT     0103 Rx 8  14 00 05 00 00 D3 22 00 
   1419       709.492 DT     0102 Rx 8  15 00 05 00 00 D3 23 00 
   1420       709.735 DT     0103 Rx 8  14 00 05 00 01 D3 23 00 
   1421       710.491 DT     0102 Rx 8  15 00 05 00 00 D3 24 00 
   1422       710.735 DT     0103 Rx 8  14 00 05 00 01 D3 24 00 
   1423       711.493 DT     0102 Rx 8  15 00 05 00 00 D3 25 00 
   1424       711.735 DT     0103 Rx 8  14 00 05 00 00 D3 25 00 
   1425       712.492 DT     0102 Rx 8  15 00 05 00 00 D3 26 00 
   1426       712.732 DT     0103 Rx 8  14 00 05 00 00 D3 26 00 
   1427       713.492 DT     0102 Rx 8  15 00 05 00 00 D3 27 00 
   1428       713.734 DT     0103 Rx 8  14 00 05 00 00 D3 27 00 
   1429       714.494 DT     0102 Rx 8  15 00 05 00 00 D3 28 00 
   1430       714.739 DT     0103 Rx 8  14 00 05 00 00 D3 28 00 
   1431       715.489 DT     0102 Rx 8  15 00 05 00 00 D3 29 00 
   1432       715.729 DT     0103 Rx 8  14 00 05 00 00 D3 29 00 
   1433       716.491 DT     0102 Rx 8  15 00 05 00 00 D3 2A 00 
   1434       716.731 DT     0103 Rx 8  14 00 05 00 01 D3 2A 00 
   1435       717.494 DT     0102 Rx 8  15 00 05 00 00 D3 2B 00 
   1436       717.734 DT     0103 Rx 8  14 00 05 00 00 D3 2B 00 
   1437       718.492 DT     0102 Rx 8  15 00 05 00 00 D3 2C 00 
   1438       718.734 DT     0103 Rx 8  14 00 05 00 00 D3 2C 00 
   1439       719.490 DT     0102 Rx 8  15 00 05 00 00 D3 2D 00 
   1440       719.733 DT     0103 Rx 8  14 00 05 00 00 D3 2D 00 
   1441       720.491 DT     0102 Rx 8  15 00 05 00 00 D3 2E 00 
   1442       720.733 DT     0103 Rx 8  14 00 05 00 00 D3 2E 00 
   1443       721.491 DT     0102 Rx 8  15 00 05 00 00 D3 2F 00 
   1444       721.731 DT     0103 Rx 8  14 00 05 00 00 D3 2F 00 
   1445       722.494 DT     0102 Rx 8  15 00 05 00 00 D3 30 00 
   1446       722.738 DT     0103 Rx 8  14 00 05 00 00 D3 30 00 
   1447       723.494 DT     0102 Rx 8  15 00 05 00 00 D3 31 00 
   1448       723.736 DT     0103 Rx 8  14 00 05 00 00 D3 31 00 
   1449       724.490 DT     0102 Rx 8  15 00 05 00 00 D3 32 00 
   1450       724.735 DT     0103 Rx 8  14 00 05 00 00 D3 32 00 
   1451       725.489 DT     0102 Rx 8  15 00 05 00 00 D3 33 00 
   1452       725.731 DT     0103 Rx 8  14 00 05 00 00 D3 33 00 
   1453       726.491 DT     0102 Rx 8  15 00 05 00 00 D3 34 00 
   1454       726.735 DT     0103 Rx 8  14 00 05 00 00 D3 34 00 
   1455       727.496 DT     0102 Rx 8  15 00 05 00 00 D3 35 00 
   1456       727.736 DT     0103 Rx 8  14 00 05 00 00 D3 35 00 
   1457       728.496 DT     0102 Rx 8  15 00 05 00 00 D3 36 00 
   1458       728.736 DT     0103 Rx 8  14 00 05 00 00 D3 36 00 
   1459       729.490 DT     0102 Rx 8  15 00 05 00 00 D3 37 00 
   1460       729.733 DT     0103 Rx 8  14 00 05 00 00 D3 37 00 
   1461       730.491 DT     0102 Rx 8  15 00 05 00 00 D3 38 00 
   1462       730.733 DT     0103 Rx 8  14 00 05 00 00 D3 38 00 
   1463       731.493 DT     0102 Rx 8  15 00 05 00 00 D3 39 00 
   1464       731.733 DT     0103 Rx 8  14 00 05 00 00 D3 39 00 
   1465       732.494 DT     0102 Rx 8  15 00 05 00 00 D3 3A 00 
   1466       732.734 DT     0103 Rx 8  14 00 05 00 01 D3 3A 00 
   1467       733.492 DT     0102 Rx 8  15 00 05 00 00 D3 3B 00 
   1468       733.736 DT     0103 Rx 8  14 00 05 00 01 D3 3B 00 
   1469       734.492 DT     0102 Rx 8  15 00 05 00 00 D3 3C 00 
   1470       734.739 DT     0103 Rx 8  14 00 05 00 00 D3 3C 00 
   1471       735.491 DT     0102 Rx 8  15 00 05 00 00 D3 3D 00 
   1472       735.733 DT     0103 Rx 8  14 00 05 00 01 D3 3D 00 
   1473       736.495 DT     0102 Rx 8  15 00 05 00 00 D3 3E 00 
   1474       736.739 DT     0103 Rx 8  14 00 05 00 01 D3 3E 00 
   1475       737.498 DT     0102 Rx 8  15 00 05 00 00 D3 3F 00 
   1476       737.742 DT     0103 Rx 8  14 00 05 00 01 D3 3F 00 
   1477       738.492 DT     0102 Rx 8  15 00 05 00 00 D3 40 00 
   1478       738.736 DT     0103 Rx 8  14 00 05 00 01 D3 40 00 
   1479       739.492 DT     0102 Rx 8  15 00 05 00 00 D3 41 00 
   1480       739.732 DT     0103 Rx 8  14 00 05 00 02 D3 41 00 
   1481       740.491 DT     0102 Rx 8  15 00 05 00 00 D3 42 00 
   1482       740.731 DT     0103 Rx 8  14 00 05 00 01 D3 42 00 
   1483       741.489 DT     0102 Rx 8  15 00 05 00 00 D3 43 00 
   1484       741.729 DT     0103 Rx 8  14 00 05 00 01 D3 43 00 
   1485       742.491 DT     0102 Rx 8  15 00 05 00 00 D3 44 00 
   1486       742.732 DT     0103 Rx 8  14 00 05 00 02 D3 44 00 
   1487       743.490 DT     0102 Rx 8  15 00 05 00 00 D3 45 00 
   1488       743.730 DT     0103 Rx 8  14 00 05 00 01 D3 45 00 
   1489       744.490 DT     0102 Rx 8  15 00 05 00 00 D3 46 00 
   1490       744.734 DT     0103 Rx 8  14 00 05 00 01 D3 46 00 
   1491       745.489 DT     0102 Rx 8  15 00 05 00 00 D3 47 00 
   1492       745.731 DT     0103 Rx 8  14 00 05 00 01 D3 47 00 
   1493       746.491 DT     0102 Rx 8  15 00 05 00 00 D3 48 00 
   1494       746.733 DT     0103 Rx 8  14 00 05 00 01 D3 48 00 
   1495       747.493 DT     0102 Rx 8  15 00 05 00 00 D3 49 00 
   1496       747.736 DT     0103 Rx 8  14 00 05 00 00 D3 49 00 
   1497       748.490 DT     0102 Rx 8  15 00 05 00 00 D3 4A 00 
   1498       748.732 DT     0103 Rx 8  14 00 05 00 01 D3 4A 00 
   1499       749.492 DT     0102 Rx 8  15 00 05 00 00 D3 4B 00 
   1500       749.732 DT     0103 Rx 8  14 00 05 00 00 D3 4B 00 
   1501       750.491 DT     0102 Rx 8  15 00 05 00 00 D3 4C 00 
   1502       750.733 DT     0103 Rx 8  14 00 05 00 00 D3 4C 00 
   1503       751.491 DT     0102 Rx 8  15 00 05 00 00 D3 4D 00 
   1504       751.731 DT     0103 Rx 8  14 00 05 00 00 D3 4D 00 
   1505       752.493 DT     0102 Rx 8  15 00 05 00 00 D3 4E 00 
